(0.002000) can0 18FF711E#00000000C8
(0.002500) can0 202#02100110F4010000
(0.003000) can0 202#01F4010000000000
(0.009600) can0 301#9B0792000015449C
(0.018000) can0 182#CF11392010010000
(0.018400) can0 282#101F5D110000129C
(0.018900) can0 382#01FFFFFFFFFFFFFF
(0.019600) can0 301#9B07930000154560
(0.029600) can0 301#9B07940000154414
(0.038000) can0 182#CF11392010010000
(0.038500) can0 282#101F5D110000129C
(0.039000) can0 382#01FFFFFFFFFFFFFF
(0.039500) can0 301#9B079500001545E8
(0.049500) can0 301#9B079600001545AC
(0.052000) can0 18FF711E#00000000C8
(0.052500) can0 202#02100110F4010000
(0.053000) can0 202#01F4010000000000
(0.058200) can0 182#CF11392010010000
(0.058700) can0 282#10575D110000129C
(0.059200) can0 382#01FFFFFFFFFFFFFF
(0.059700) can0 301#9B07970000154450
(0.069500) can0 301#9B07980000154744
(0.077900) can0 182#CF11392010010000
(0.078400) can0 282#10575D110000129C
(0.078900) can0 382#01FFFFFFFFFFFFFF
(0.079500) can0 301#9B079900001546B8
(0.089500) can0 301#9B079A00001546FC
(0.097900) can0 182#CF11392010010000
(0.098400) can0 282#10575D110000129C
(0.098900) can0 382#01FFFFFFFFFFFFFF
(0.099500) can0 301#9B079B0000154700
(0.102000) can0 18FF711E#00000000C8
(0.102500) can0 202#02100110F4010000
(0.103000) can0 202#01F4010000000000
(0.109500) can0 301#9B079C0000154674
(0.117900) can0 182#CF11392010010000
(0.118400) can0 282#10575D110000129C
(0.118900) can0 382#01FFFFFFFFFFFFFF
(0.119500) can0 301#9C079D01001517FF
(0.129400) can0 301#9B079EFFFF15360C
(0.137900) can0 182#CF11392010010000
(0.138400) can0 282#10575D110000129C
(0.138900) can0 382#01FFFFFFFFFFFFFF
(0.139400) can0 301#9B079F0000154630
(0.149400) can0 301#9B07A00000154A24
(0.152000) can0 18FF711E#00000000C8
(0.152500) can0 202#02100110F4010000
(0.153000) can0 202#01F4010000000000
(0.157900) can0 182#CF11392010010000
(0.158400) can0 282#10575D110000129C
(0.158900) can0 382#01FFFFFFFFFFFFFF
(0.159400) can0 301#9B07A10000154BD8
(0.169400) can0 301#9B07A20000154B9C
(0.178000) can0 182#CF11392010010000
(0.178400) can0 282#10575D110000129C
(0.178900) can0 382#01FFFFFFFFFFFFFF
(0.179400) can0 301#9C07A30100151A17
(0.189400) can0 301#9B07A4FFFF153AD4
(0.198100) can0 182#CF11392010010000
(0.198500) can0 282#10575D110000129C
(0.199000) can0 382#01FFFFFFFFFFFFFF
(0.199500) can0 301#9B07A50000154AE8
(0.201900) can0 18FF711E#00000000C8
(0.202500) can0 202#02100110F4010000
(0.202900) can0 202#01F4010000000000
(0.209300) can0 301#9C07A60100151ADB
(0.217900) can0 182#CF11392010010000
(0.218400) can0 282#10575D110000129C
(0.218800) can0 382#01FFFFFFFFFFFFFF
(0.219300) can0 301#9C07A70000154AE7
(0.229300) can0 301#9B07A8FFFF153984
(0.237900) can0 182#CF11392010010000
(0.238300) can0 282#10475D110000129C
(0.238900) can0 382#01FFFFFFFFFFFFFF
(0.239300) can0 301#9B07A900001549B8
(0.249300) can0 301#9B07AA00001549FC
(0.251900) can0 18FF711E#00000000C8
(0.252600) can0 202#02100110F4010000
(0.253100) can0 202#01F4010000000000
(0.258100) can0 182#CF11392010010000
(0.258600) can0 282#10475D110000129C
(0.259100) can0 382#01FFFFFFFFFFFFFF
(0.259600) can0 301#9C07AB0100151877
(0.269300) can0 301#9B07ACFFFF1538B4
(0.277800) can0 182#CF11392010010000
(0.278300) can0 282#10475D1100001294
(0.278800) can0 382#01FFFFFFFFFFFFFF
(0.279300) can0 301#9B07AD0000154888
(0.289200) can0 301#9B07AE00001548CC
(0.297900) can0 182#CF11392010010000
(0.298400) can0 282#10475D1100001294
(0.298900) can0 382#01FFFFFFFFFFFFFF
(0.299400) can0 301#9B07AF0000154930
(0.301900) can0 18FF711E#00000000C8
(0.302400) can0 202#02100110F4010000
(0.302900) can0 202#01F4010000000000
(0.309200) can0 301#9B07B00000154EE4
(0.317900) can0 182#CF11392010010000
(0.318400) can0 282#10475D1100001294
(0.318900) can0 382#01FFFFFFFFFFFFFF
(0.319300) can0 301#9B07B10000154F18
(0.329200) can0 301#9B07B20000154F5C
(0.337800) can0 182#CF11392010010000
(0.338300) can0 282#10475D1100001294
(0.338800) can0 382#01FFFFFFFFFFFFFF
(0.339300) can0 301#9B07B30000154EA0
(0.349200) can0 301#9C07B40100151FA3
(0.352100) can0 18FF711E#00000000C8
(0.352600) can0 202#02100110F4010000
(0.353100) can0 202#01F4010000000000
(0.357800) can0 182#CF11392010010000
(0.358300) can0 282#10475D1100001294
(0.358800) can0 382#01FFFFFFFFFFFFFF
(0.359300) can0 301#9B07B5FFFF153FE8
(0.369200) can0 301#9B07B60000154E6C
(0.371700) can0 181#8136399000090000
(0.372100) can0 281#0000000000000063
(0.372700) can0 681#D200D200FFFFFFFF
(0.377900) can0 182#CF11392010010000
(0.378300) can0 282#10475D1100001294
(0.378800) can0 382#01FFFFFFFFFFFFFF
(0.379300) can0 301#9B07B70000154F90
(0.389100) can0 301#9B07B80000154C84
(0.397800) can0 182#CF11392010010000
(0.398300) can0 282#10475D1100001294
(0.398800) can0 382#01FFFFFFFFFFFFFF
(0.399200) can0 301#9B07B90000154D78
(0.401900) can0 18FF711E#00000000C8
(0.402400) can0 202#02100110F4010000
(0.402900) can0 202#01F4010000000000
(0.409100) can0 301#9B07BA0000154D3C
(0.418100) can0 182#CF11392010010000
(0.418500) can0 282#10475D1100001294
(0.419000) can0 382#01FFFFFFFFFFFFFF
(0.419500) can0 301#9B07BB0000154CC0
(0.429100) can0 301#9B07BC0000154DB4
(0.437800) can0 182#CF11392010010000
(0.438300) can0 282#10475D1100001294
(0.438700) can0 382#01FFFFFFFFFFFFFF
(0.439200) can0 301#9B07BD0000154C48
(0.449100) can0 301#9B07BE0000154C0C
(0.451900) can0 18FF711E#00000000C8
(0.452400) can0 202#02100110F4010000
(0.452900) can0 202#01F4010000000000
(0.458100) can0 182#CF11392010010000
(0.458500) can0 282#10475D110000128B
(0.459100) can0 382#01FFFFFFFFFFFFFF
(0.459500) can0 301#9B07BF0000154DF0
(0.469000) can0 301#9B07C00000155424
(0.477800) can0 182#CF11392010010000
(0.478300) can0 282#10475D110000128B
(0.478800) can0 382#01FFFFFFFFFFFFFF
(0.479200) can0 301#9B07C100001555D8
(0.489000) can0 301#9B07C2000015559C
(0.497800) can0 182#CF11392010010000
(0.498300) can0 282#10475D110000128B
(0.498800) can0 382#01FFFFFFFFFFFFFF
(0.499300) can0 301#9B07C30000155460
(0.501900) can0 18FF711E#00000000C8
(0.502400) can0 202#02100110F4010000
(0.502900) can0 202#01F4010000000000
(0.509000) can0 301#9B07C40000155514
(0.517800) can0 182#CF11392010010000
(0.518200) can0 282#10475D110000128B
(0.518700) can0 382#01FFFFFFFFFFFFFF
(0.519200) can0 301#9B07C500001554E8
(0.529000) can0 301#9B07C600001554AC
(0.537800) can0 182#CF11392010010000
(0.538200) can0 282#10475D110000128B
(0.538700) can0 382#01FFFFFFFFFFFFFF
(0.539200) can0 301#9B07C70000155550
(0.549000) can0 301#9B07C80000155644
(0.551900) can0 18FF711E#00000000C8
(0.552400) can0 202#02100110F4010000
(0.552900) can0 202#01F4010000000000
(0.557700) can0 182#CF11392010010000
(0.558200) can0 282#10475D110000128B
(0.558700) can0 382#01FFFFFFFFFFFFFF
(0.559200) can0 301#9B07C900001557B8
(0.568900) can0 301#9B07CA00001557FC
(0.577800) can0 182#CF11392010010000
(0.578300) can0 282#10475D110000128B
(0.578800) can0 382#01FFFFFFFFFFFFFF
(0.579200) can0 301#9B07CB0000155600
(0.588900) can0 301#9B07CC0000155774
(0.597700) can0 182#CF11392010010000
(0.598200) can0 282#104F5D110000128B
(0.598700) can0 382#01FFFFFFFFFFFFFF
(0.599200) can0 301#9B07CD0000155688
(0.601900) can0 18FF711E#00000000C8
(0.602400) can0 202#02100110F4010000
(0.602800) can0 202#01F4010000000000
(0.608900) can0 301#9B07CE00001556CC
(0.617800) can0 182#CF11392010010000
(0.618200) can0 282#104F5D1100001286
(0.618800) can0 382#01FFFFFFFFFFFFFF
(0.619200) can0 301#9B07CF0000155730
(0.628900) can0 301#9B07D000001550E4
(0.638000) can0 182#CF11392010010000
(0.638500) can0 282#104F5D1100001286
(0.638900) can0 301#9B07D10000155118
(0.639500) can0 382#01FFFFFFFFFFFFFF
(0.648800) can0 301#9B07D2000015515C
(0.651900) can0 18FF711E#00000000C8
(0.652300) can0 202#02100110F4010000
(0.652800) can0 202#01F4010000000000
(0.657700) can0 182#CF11392010010000
(0.658200) can0 282#104F5D1100001286
(0.658700) can0 382#01FFFFFFFFFFFFFF
(0.659200) can0 301#9B07D300001550A0
(0.668800) can0 301#9C07D401001501A3
(0.677700) can0 182#CF11392010010000
(0.678200) can0 282#104F5D1100001286
(0.678700) can0 382#01FFFFFFFFFFFFFF
(0.679200) can0 301#9B07D5FFFF1521E8
(0.688800) can0 301#9B07D6000015506C
(0.697800) can0 182#CF11392010010000
(0.698200) can0 282#104F5D1100001286
(0.698700) can0 382#01FFFFFFFFFFFFFF
(0.699200) can0 301#9B07D70000155190
(0.701900) can0 18FF711E#00000000C8
(0.702300) can0 202#02100110F4010000
(0.702900) can0 202#01F4010000000000
(0.708700) can0 301#9B07D80000155284
(0.717700) can0 182#CF11392010010000
(0.718200) can0 282#104F5D1100001286
(0.718700) can0 382#01FFFFFFFFFFFFFF
(0.719200) can0 301#9B07D90000155378
(0.728800) can0 301#9B07DA000015533C
(0.737700) can0 182#CF11392010010000
(0.738200) can0 282#104F5D1100001286
(0.738700) can0 382#01FFFFFFFFFFFFFF
(0.739100) can0 301#9B07DB00001552C0
(0.748700) can0 301#9B07DC00001553B4
(0.751800) can0 18FF711E#00000000C8
(0.752300) can0 202#02100110F4010000
(0.752800) can0 202#01F4010000000000
(0.757700) can0 182#CF11392010010000
(0.758200) can0 282#104F5D1100001286
(0.758700) can0 382#01FFFFFFFFFFFFFF
(0.759100) can0 301#9B07DD0000155248
(0.768700) can0 301#9C07DE010015027B
(0.777700) can0 182#CF11392010010000
(0.778200) can0 282#10275D1100001286
(0.778700) can0 301#9B07DFFFFF152230
(0.779200) can0 382#01FFFFFFFFFFFFFF
(0.788700) can0 301#9B07E00000155FE4
(0.797700) can0 182#CF11392010010000
(0.798200) can0 282#10275D1100001299
(0.798600) can0 301#9B07E10000155E18
(0.799200) can0 382#01FFFFFFFFFFFFFF
(0.801800) can0 18FF711E#00000000C8
(0.802500) can0 202#02100110F4010000
(0.803000) can0 202#01F4010000000000
(0.808600) can0 301#9C07E20100150E2B
(0.817700) can0 182#CF11392010010000
(0.818200) can0 282#10275D1100001299
(0.818700) can0 301#9B07E3FFFF152E60
(0.819200) can0 382#01FFFFFFFFFFFFFF
(0.828600) can0 301#9B07E40000155ED4
(0.837600) can0 182#CF11392010010000
(0.838100) can0 282#10275D1100001299
(0.838600) can0 382#01FFFFFFFFFFFFFF
(0.839100) can0 301#9B07E50000155F28
(0.848600) can0 301#9C07E60100150F1B
(0.851800) can0 18FF711E#00000000C8
(0.852300) can0 202#02100110F4010000
(0.852800) can0 202#01F4010000000000
(0.858100) can0 182#CF11392010010000
(0.858600) can0 282#10275D1100001299
(0.859100) can0 301#9B07E7FFFF152F50
(0.859500) can0 382#01FFFFFFFFFFFFFF
(0.868600) can0 301#9B07E80000155D84
(0.877700) can0 182#CF11392010010000
(0.878200) can0 282#10275D1100001299
(0.878600) can0 301#9B07E90000155C78
(0.879100) can0 382#01FFFFFFFFFFFFFF
(0.888500) can0 301#9B07EA0000155C3C
(0.897600) can0 182#CF11392010010000
(0.898100) can0 282#10275D1100001299
(0.898600) can0 301#9B07EB0000155DC0
(0.899100) can0 382#01FFFFFFFFFFFFFF
(0.902000) can0 18FF711E#00000000C8
(0.902500) can0 202#02100110F4010000
(0.903000) can0 202#01F4010000000000
(0.908500) can0 301#9B07EC0000155CB4
(0.917700) can0 182#CF11392010010000
(0.918200) can0 282#10275D1100001299
(0.918600) can0 301#9B07ED0000155D48
(0.919100) can0 382#01FFFFFFFFFFFFFF
(0.928500) can0 301#9B07EE0000155D0C
(0.937600) can0 182#CF11392010010000
(0.938100) can0 282#104F5D1100001299
(0.938500) can0 301#9B07EF0000155CF0
(0.939100) can0 382#01FFFFFFFFFFFFFF
(0.948500) can0 301#9B07F00000155B24
(0.951800) can0 18FF711E#00000000C8
(0.952300) can0 202#02100110F4010000
(0.952800) can0 202#01F4010000000000
(0.957900) can0 182#CF11392010010000
(0.958300) can0 282#104F5D1100001299
(0.958800) can0 301#9B07F10000155AD8
(0.959300) can0 382#01FFFFFFFFFFFFFF
(0.968500) can0 301#9C07F20100150AEB
(0.977700) can0 182#CF11392010010000
(0.978100) can0 282#104F5D110000129C
(0.978600) can0 301#9B07F3FFFF152AA0
(0.979100) can0 382#01FFFFFFFFFFFFFF
(0.988400) can0 301#9B07F40000155A14
(0.997600) can0 182#CF11392010010000
(0.998100) can0 282#104F5D110000129C
(0.998600) can0 301#9B07F50000155BE8
(0.999100) can0 382#01FFFFFFFFFFFFFF
(1.001800) can0 18FF711E#00000000C8
(1.002200) can0 202#02100110F4010000
(1.002800) can0 202#01F4010000000000
(1.008400) can0 301#9B07F60000155BAC
(1.017600) can0 182#CF11392010010000
(1.018000) can0 282#104F5D110000129C
(1.018500) can0 301#9B07F70000155A50
(1.019000) can0 382#01FFFFFFFFFFFFFF
(1.028400) can0 301#9C07F80100150933
(1.037600) can0 182#CF11392010010000
(1.038000) can0 282#104F5D110000129C
(1.038500) can0 301#9B07F9FFFF152978
(1.039000) can0 382#01FFFFFFFFFFFFFF
(1.048400) can0 301#9B07FA00001558FC
(1.051800) can0 18FF711E#00000000C8
(1.052300) can0 202#02100110F4010000
(1.052800) can0 202#01F4010000000000
(1.057600) can0 182#CF11392010010000
(1.058100) can0 282#104F5D110000129C
(1.058500) can0 301#9B07FB0000155900
(1.059000) can0 382#01FFFFFFFFFFFFFF
(1.068300) can0 301#9B07FC0000155874
(1.077800) can0 182#CF11392010010000
(1.078200) can0 282#104F5D110000129C
(1.078700) can0 301#9B07FD0000155988
(1.079200) can0 382#01FFFFFFFFFFFFFF
(1.088300) can0 301#9B07FE00001559CC
(1.097600) can0 182#CF11392010010000
(1.098100) can0 282#104F5D110000129C
(1.098500) can0 301#9B07FF0000155830
(1.099100) can0 382#01FFFFFFFFFFFFFF
(1.101700) can0 18FF711E#00000000C8
(1.102300) can0 202#02100110F4010000
(1.102700) can0 202#01F4010000000000
(1.108300) can0 301#9B07000000156824
(1.117500) can0 182#CF11392010010000
(1.118000) can0 282#103F5D110000129C
(1.118500) can0 301#9B070100001569D8
(1.119000) can0 382#01FFFFFFFFFFFFFF
(1.128200) can0 301#9B0702000015699C
(1.137600) can0 182#CF11392010010000
(1.138000) can0 282#103F5D110000129C
(1.138500) can0 301#9B07030000156860
(1.139000) can0 382#01FFFFFFFFFFFFFF
(1.148200) can0 301#9C07040100153963
(1.151800) can0 18FF711E#00000000C8
(1.152200) can0 202#02100110F4010000
(1.152800) can0 202#01F4010000000000
(1.157600) can0 182#CF11392010010000
(1.158000) can0 282#103F5D1100001299
(1.158500) can0 301#9B0705FFFF151928
(1.159000) can0 382#01FFFFFFFFFFFFFF
(1.168200) can0 301#9B070600001568AC
(1.177500) can0 182#CF11392010010000
(1.178000) can0 282#103F5D1100001299
(1.178500) can0 301#9B07070000156950
(1.179000) can0 382#01FFFFFFFFFFFFFF
(1.188200) can0 301#9B07080000156A44
(1.197600) can0 182#CF11392010010000
(1.198100) can0 282#103F5D1100001299
(1.198500) can0 301#9B07090000156BB8
(1.199000) can0 382#01FFFFFFFFFFFFFF
(1.201800) can0 18FF711E#00000000C8
(1.202200) can0 202#02100110F4010000
(1.202800) can0 202#01F4010000000000
(1.208200) can0 301#9B070A0000156BFC
(1.217500) can0 182#CF11392010010000
(1.218000) can0 282#103F5D1100001299
(1.218500) can0 301#9B070B0000156A00
(1.219000) can0 382#01FFFFFFFFFFFFFF
(1.228100) can0 301#9B070C0000156B74
(1.237500) can0 182#CF11392010010000
(1.238000) can0 282#103F5D1100001299
(1.238500) can0 301#9B070D0000156A88
(1.239000) can0 382#01FFFFFFFFFFFFFF
(1.248100) can0 301#9B070E0000156ACC
(1.251700) can0 18FF711E#00000000C8
(1.252300) can0 202#02100110F4010000
(1.252700) can0 202#01F4010000000000
(1.257800) can0 182#CF11392010010000
(1.258300) can0 282#103F5D1100001299
(1.258700) can0 301#9B070F0000156B30
(1.259200) can0 382#01FFFFFFFFFFFFFF
(1.268100) can0 301#9B07100000156CE4
(1.277500) can0 182#CF11392010010000
(1.278000) can0 282#103F5D1100001299
(1.278400) can0 301#9B07110000156D18
(1.279000) can0 382#01FFFFFFFFFFFFFF
(1.288100) can0 301#9B07120000156D5C
(1.297700) can0 182#CF11392010010000
(1.298200) can0 282#10475D1100001299
(1.298700) can0 301#9B07130000156CA0
(1.299200) can0 382#01FFFFFFFFFFFFFF
(1.301700) can0 18FF711E#00000000C8
(1.302200) can0 202#02100110F4010000
(1.302700) can0 202#01F4010000000000
(1.308100) can0 301#9B07140000156DD4
(1.317600) can0 182#CF11392010010000
(1.318000) can0 282#10475D1100001299
(1.318500) can0 301#9B07150000156C28
(1.319000) can0 382#01FFFFFFFFFFFFFF
(1.328000) can0 301#9B07160000156C6C
(1.337500) can0 182#CF11392010010000
(1.338000) can0 282#10475D1100001299
(1.338500) can0 301#9B07170000156D90
(1.339000) can0 382#01FFFFFFFFFFFFFF
(1.348000) can0 301#9B07180000156E84
(1.351800) can0 18FF711E#00000000C8
(1.352400) can0 202#02100110F4010000
(1.352900) can0 202#01F4010000000000
(1.357800) can0 182#CF11392010010000
(1.358200) can0 282#10475D1100001299
(1.358700) can0 301#9B07190000156F78
(1.359200) can0 382#01FFFFFFFFFFFFFF
(1.368000) can0 301#9B071A0000156F3C
(1.371500) can0 181#8136399000090000
(1.372000) can0 281#0000000000000063
(1.372400) can0 681#D200D200FFFFFFFF
(1.377500) can0 182#CF11392010010000
(1.377900) can0 282#10475D1100001299
(1.378400) can0 301#9B071B0000156EC0
(1.378900) can0 382#01FFFFFFFFFFFFFF
(1.388000) can0 301#9B071C0000156FB4
(1.397500) can0 182#CF11392010010000
(1.398000) can0 282#10475D1100001299
(1.398500) can0 301#9B071D0000156E48
(1.399000) can0 382#01FFFFFFFFFFFFFF
(1.401700) can0 18FF711E#00000000C8
(1.402200) can0 202#02100110F4010000
(1.402700) can0 202#01F4010000000000
(1.407900) can0 301#9B071E0000156E0C
(1.417500) can0 182#CF11392010010000
(1.417900) can0 282#10475D1100001299
(1.418400) can0 301#9B071F0000156FF0
(1.418900) can0 382#01FFFFFFFFFFFFFF
(1.427900) can0 301#9B072000001563E4
(1.437500) can0 182#CF11392010010000
(1.438000) can0 282#10475D1100001299
(1.438400) can0 301#9C0721010015326F
(1.439000) can0 382#01FFFFFFFFFFFFFF
(1.447900) can0 301#9C072200001563EB
(1.451900) can0 18FF711E#00000000C8
(1.452400) can0 202#02100110F4010000
(1.452900) can0 202#01F4010000000000
(1.457700) can0 182#CF11392010010000
(1.458200) can0 282#10475D1100001299
(1.458700) can0 301#9B0723FFFF151260
(1.459200) can0 382#01FFFFFFFFFFFFFF
(1.467800) can0 301#9B072400001562D4
(1.477500) can0 182#CF11392010010000
(1.478000) can0 282#103F5D1100001299
(1.478400) can0 301#9B07250000156328
(1.478900) can0 382#01FFFFFFFFFFFFFF
(1.487900) can0 301#9B0726000015636C
(1.497400) can0 182#CF11392010010000
(1.497900) can0 282#103F5D11000012A2
(1.498400) can0 301#9B07270000156290
(1.498900) can0 382#01FFFFFFFFFFFFFF
(1.501700) can0 18FF711E#00000000C8
(1.502200) can0 202#02100110F4010000
(1.502700) can0 202#01F4010000000000
(1.507800) can0 301#9B07280000156184
(1.517600) can0 182#CF11392010010000
(1.518100) can0 282#103F5D11000012A2
(1.518600) can0 301#9B07290000156078
(1.519100) can0 382#01FFFFFFFFFFFFFF
(1.527800) can0 301#9B072A000015603C
(1.537500) can0 182#CF11392010010000
(1.537900) can0 282#103F5D11000012A2
(1.538400) can0 301#9B072B00001561C0
(1.538900) can0 382#01FFFFFFFFFFFFFF
(1.547800) can0 301#9B072C00001560B4
(1.551700) can0 18FF711E#00000000C8
(1.552200) can0 202#02100110F4010000
(1.552700) can0 202#01F4010000000000
(1.557400) can0 182#CF11392010010000
(1.557900) can0 282#103F5D11000012A2
(1.558300) can0 301#9B072D0000156148
(1.558900) can0 382#01FFFFFFFFFFFFFF
(1.567800) can0 301#9B072E000015610C
(1.577400) can0 182#CF11392010010000
(1.577900) can0 282#103F5D11000012A2
(1.578400) can0 301#9B072F00001560F0
(1.578900) can0 382#01FFFFFFFFFFFFFF
(1.587700) can0 301#9B07300000156724
(1.597400) can0 182#CF11392010010000
(1.597900) can0 282#103F5D11000012A2
(1.598300) can0 301#9B073100001566D8
(1.598800) can0 382#01FFFFFFFFFFFFFF
(1.601700) can0 18FF711E#00000000C8
(1.602200) can0 202#02100110F4010000
(1.602700) can0 202#01F4010000000000
(1.607700) can0 301#9B0732000015669C
(1.617400) can0 182#CF11392010010000
(1.617900) can0 282#103F5D11000012A2
(1.618300) can0 301#9B07330000156760
(1.618800) can0 382#01FFFFFFFFFFFFFF
(1.627700) can0 301#9B07340000156614
(1.637400) can0 182#CF11392010010000
(1.637900) can0 282#103F5D11000012A2
(1.638300) can0 301#9B073500001567E8
(1.638900) can0 382#01FFFFFFFFFFFFFF
(1.647700) can0 301#9B073600001567AC
(1.651700) can0 18FF711E#00000000C8
(1.652200) can0 202#02100110F4010000
(1.652600) can0 202#01F4010000000000
(1.657400) can0 182#CF11392010010000
(1.657800) can0 282#10F75C11000012A2
(1.658300) can0 301#9B07370000156650
(1.658800) can0 382#01FFFFFFFFFFFFFF
(1.667700) can0 301#9B07380000156544
(1.677400) can0 182#CF11392010010000
(1.677900) can0 282#10F75C11000012AF
(1.678400) can0 301#9B073900001564B8
(1.678900) can0 382#01FFFFFFFFFFFFFF
(1.687700) can0 301#9B073A00001564FC
(1.697400) can0 182#CF11392010010000
(1.697800) can0 282#10F75C11000012AF
(1.698300) can0 301#9B073B0000156500
(1.698800) can0 382#01FFFFFFFFFFFFFF
(1.701700) can0 18FF711E#00000000C8
(1.702100) can0 202#02100110F4010000
(1.702600) can0 202#01F4010000000000
(1.707600) can0 301#9B073C0000156474
(1.717400) can0 182#CF11392010010000
(1.717900) can0 282#10F75C11000012AF
(1.718300) can0 301#9B073D0000156588
(1.718900) can0 382#01FFFFFFFFFFFFFF
(1.727600) can0 301#9B073E00001565CC
(1.737600) can0 182#CF11392010010000
(1.738100) can0 282#10F75C11000012AF
(1.738500) can0 301#9B073F0000156430
(1.739000) can0 382#01FFFFFFFFFFFFFF
(1.747600) can0 301#9B07400000157DE4
(1.751700) can0 18FF711E#00000000C8
(1.752100) can0 202#02100110F4010000
(1.752600) can0 202#01F4010000000000
(1.757300) can0 182#CF11392010010000
(1.757800) can0 282#10F75C11000012AF
(1.758300) can0 301#9B07410000157C18
(1.758800) can0 382#01FFFFFFFFFFFFFF
(1.767500) can0 301#9B07420000157C5C
(1.777400) can0 182#CF11392010010000
(1.777800) can0 282#10F75C11000012AF
(1.778300) can0 301#9B07430000157DA0
(1.778800) can0 382#01FFFFFFFFFFFFFF
(1.787600) can0 301#9B07440000157CD4
(1.797400) can0 182#CF11392010010000
(1.797800) can0 282#10F75C11000012AF
(1.798300) can0 301#9B07450000157D28
(1.798800) can0 382#01FFFFFFFFFFFFFF
(1.801600) can0 18FF711E#00000000C8
(1.802100) can0 202#02100110F4010000
(1.802600) can0 202#01F4010000000000
(1.807500) can0 301#9B07460000157D6C
(1.817400) can0 182#CF11392010010000
(1.817800) can0 282#10375D11000012AF
(1.818300) can0 301#9B07470000157C90
(1.818800) can0 382#01FFFFFFFFFFFFFF
(1.827500) can0 301#9B07480000157F84
(1.837400) can0 182#CF11392010010000
(1.837900) can0 282#10375D11000012AF
(1.838300) can0 301#9B07490000157E78
(1.838800) can0 382#01FFFFFFFFFFFFFF
(1.847500) can0 301#9B074A0000157E3C
(1.851600) can0 18FF711E#00000000C8
(1.852100) can0 202#02100110F4010000
(1.852600) can0 202#01F4010000000000
(1.857300) can0 182#CF11392010010000
(1.857800) can0 282#10375D11000012AF
(1.858300) can0 301#9B074B0000157FC0
(1.858800) can0 382#01FFFFFFFFFFFFFF
(1.867500) can0 301#9B074C0000157EB4
(1.877300) can0 182#CF11392010010000
(1.877700) can0 282#10375D11000012AF
(1.878200) can0 301#9B074D0000157F48
(1.878700) can0 382#01FFFFFFFFFFFFFF
(1.887400) can0 301#9B074E0000157F0C
(1.897300) can0 182#CF11392010010000
(1.897800) can0 282#10375D11000012AF
(1.898300) can0 301#9B074F0000157EF0
(1.898800) can0 382#01FFFFFFFFFFFFFF
(1.901600) can0 18FF711E#00000000C8
(1.902300) can0 202#02100110F4010000
(1.902800) can0 202#01F4010000000000
(1.907400) can0 301#9B07500000157924
(1.917300) can0 182#CF11392010010000
(1.917800) can0 282#10375D11000012AF
(1.918200) can0 301#9B075100001578D8
(1.918700) can0 382#01FFFFFFFFFFFFFF
(1.927400) can0 301#9B0752000015789C
(1.937300) can0 182#CF11392010010000
(1.937800) can0 282#10375D11000012AF
(1.938300) can0 301#9B07530000157960
(1.938800) can0 382#01FFFFFFFFFFFFFF
(1.947300) can0 301#9B07540000157814
(1.951600) can0 18FF711E#00000000C8
(1.952200) can0 202#02100110F4010000
(1.952700) can0 202#01F4010000000000
(1.957400) can0 301#9B075500001579E8
(1.957800) can0 182#CF11392010010000
(1.958300) can0 282#10375D11000012AF
(1.958800) can0 382#01FFFFFFFFFFFFFF
(1.967300) can0 301#9B075600001579AC
(1.977300) can0 182#CF11392010010000
(1.977800) can0 282#10375D11000012AF
(1.978200) can0 301#9B07570000157850
(1.978700) can0 382#01FFFFFFFFFFFFFF
(1.987300) can0 301#9B07580000157B44
(1.997300) can0 182#CF11392010010000
(1.997800) can0 282#103F5D11000012AF
(1.998200) can0 301#9B07590000157AB8
(1.998800) can0 382#01FFFFFFFFFFFFFF
(2.001800) can0 18FF711E#00000000C8
(2.002300) can0 202#02100110F4010000
(2.002800) can0 202#01F4010000000000
(2.007300) can0 301#9B075A0000157AFC
(2.017300) can0 301#9B075B0000157B00
(2.017800) can0 182#CF11392010010000
(2.018300) can0 282#103F5D11000012AF
(2.018700) can0 382#01FFFFFFFFFFFFFF
(2.027300) can0 301#9B075C0000157A74
(2.037300) can0 301#9B075D0000157B88
(2.037800) can0 182#CF11392010010000
(2.038200) can0 282#103F5D11000012A2
(2.038700) can0 382#01FFFFFFFFFFFFFF
(2.047200) can0 301#9B075E0000157BCC
(2.051600) can0 18FF711E#00000000C8
(2.052000) can0 202#02100110F4010000
(2.052600) can0 202#01F4010000000000
(2.057200) can0 182#CF11392010010000
(2.057700) can0 282#103F5D11000012A2
(2.058200) can0 301#9B075F0000157A30
(2.058700) can0 382#01FFFFFFFFFFFFFF
(2.067200) can0 301#9B07600000157624
(2.077200) can0 301#9B076100001577D8
(2.077700) can0 182#CF11392010010000
(2.078200) can0 282#103F5D11000012A2
(2.078700) can0 382#01FFFFFFFFFFFFFF
(2.087200) can0 301#9B0762000015779C
(2.097200) can0 301#9B07630000157660
(2.097700) can0 182#CF11392010010000
(2.098100) can0 282#103F5D11000012A2
(2.098600) can0 382#01FFFFFFFFFFFFFF
(2.101600) can0 18FF711E#00000000C8
(2.102000) can0 202#02100110F4010000
(2.102600) can0 202#01F4010000000000
(2.107200) can0 301#9B07640000157714
(2.117200) can0 301#9B076500001576E8
(2.117700) can0 182#CF11392010010000
(2.118100) can0 282#103F5D11000012A2
(2.118600) can0 382#01FFFFFFFFFFFFFF
(2.127100) can0 301#9B076600001576AC
(2.137200) can0 301#9B07670000157750
(2.137600) can0 182#CF11392010010000
(2.138100) can0 282#103F5D11000012A2
(2.138600) can0 382#01FFFFFFFFFFFFFF
(2.147100) can0 301#9B07680000157444
(2.151500) can0 18FF711E#00000000C8
(2.152000) can0 202#02100110F4010000
(2.152500) can0 202#01F4010000000000
(2.157100) can0 301#9B076900001575B8
(2.157600) can0 182#CF11392010010000
(2.158100) can0 282#103F5D11000012A2
(2.158500) can0 382#01FFFFFFFFFFFFFF
(2.167100) can0 301#9B076A00001575FC
(2.177100) can0 301#9B076B0000157400
(2.177600) can0 182#CF11392010010000
(2.178000) can0 282#103F5D11000012A2
(2.178500) can0 382#01FFFFFFFFFFFFFF
(2.187100) can0 301#9B076C0000157574
(2.197100) can0 301#9B076D0000157488
(2.197500) can0 182#CF11392010010000
(2.198000) can0 282#103F5D11000012A2
(2.198500) can0 382#01FFFFFFFFFFFFFF
(2.201500) can0 18FF711E#00000000C8
(2.202000) can0 202#02100110F4010000
(2.202500) can0 202#01F4010000000000
(2.207000) can0 301#9B076E00001574CC
(2.217000) can0 301#9B076F0000157530
(2.217500) can0 182#CF11392010010000
(2.218000) can0 282#103F5D110000129C
(2.218500) can0 382#01FFFFFFFFFFFFFF
(2.227000) can0 301#9B077000001572E4
(2.237000) can0 301#9B07710000157318
(2.237500) can0 182#CF11392010010000
(2.237900) can0 282#103F5D110000129C
(2.238400) can0 382#01FFFFFFFFFFFFFF
(2.247000) can0 301#9B0772000015735C
(2.251500) can0 18FF711E#00000000C8
(2.252000) can0 202#02100110F4010000
(2.252500) can0 202#01F4010000000000
(2.257000) can0 301#9B077300001572A0
(2.257500) can0 182#CF11392010010000
(2.257900) can0 282#103F5D110000129C
(2.258500) can0 382#01FFFFFFFFFFFFFF
(2.267000) can0 301#9B077400001573D4
(2.277000) can0 301#9B07750000157228
(2.277400) can0 182#CF11392010010000
(2.277900) can0 282#103F5D110000129C
(2.278400) can0 382#01FFFFFFFFFFFFFF
(2.287000) can0 301#9B0776000015726C
(2.296900) can0 301#9C077701001523E7
(2.297400) can0 182#CF11392010010000
(2.297900) can0 282#103F5D110000129C
(2.298400) can0 382#01FFFFFFFFFFFFFF
(2.301500) can0 18FF711E#00000000C8
(2.302000) can0 202#02100110F4010000
(2.302500) can0 202#01F4010000000000
(2.306900) can0 301#9B0778FFFF150144
(2.316900) can0 301#9B07790000157178
(2.317400) can0 182#CF11392010010000
(2.317900) can0 282#103F5D110000129C
(2.318400) can0 382#01FFFFFFFFFFFFFF
(2.326900) can0 301#9B077A000015713C
(2.336900) can0 301#9B077B00001570C0
(2.337400) can0 182#CF11392010010000
(2.337900) can0 282#103F5D110000129C
(2.338400) can0 382#01FFFFFFFFFFFFFF
(2.346900) can0 301#9B077C00001571B4
(2.351500) can0 18FF711E#00000000C8
(2.352000) can0 202#02100110F4010000
(2.352500) can0 202#01F4010000000000
(2.356900) can0 301#9B077D0000157048
(2.357400) can0 182#CF11392010010000
(2.357800) can0 282#103F5D110000129C
(2.358300) can0 382#01FFFFFFFFFFFFFF
(2.366900) can0 301#9B077E000015700C
(2.371300) can0 181#8136399000090000
(2.371700) can0 281#0000000000000063
(2.372300) can0 681#D200D200FFFFFFFF
(2.376900) can0 301#9B077F00001571F0
(2.377300) can0 182#CF11392010010000
(2.377800) can0 282#103F5D110000129C
(2.378300) can0 382#01FFFFFFFFFFFFFF
(2.386800) can0 301#9B078000001541E4
(2.396800) can0 301#9B07810000154018
(2.397300) can0 182#CF11392010010000
(2.397900) can0 282#103F5D110000129C
(2.398300) can0 382#01FFFFFFFFFFFFFF
(2.401500) can0 18FF711E#00000000C8
(2.402000) can0 202#02100110F4010000
(2.402500) can0 202#01F4010000000000
(2.406800) can0 301#9B0782000015405C
(2.416800) can0 301#9B078300001541A0
(2.417300) can0 182#CF11392010010000
(2.417800) can0 282#103F5D110000129C
(2.418300) can0 382#01FFFFFFFFFFFFFF
(2.426800) can0 301#9B078400001540D4
(2.436800) can0 301#9B07850000154128
(2.437300) can0 182#CF11392010010000
(2.437700) can0 282#103F5D110000129C
(2.438300) can0 382#01FFFFFFFFFFFFFF
(2.446800) can0 301#9B0786000015416C
(2.451500) can0 18FF711E#00000000C8
(2.452200) can0 202#02100110F4010000
(2.452700) can0 202#01F4010000000000
(2.456800) can0 301#9B07870000154090
(2.457400) can0 182#CF11392010010000
(2.457900) can0 282#103F5D110000129C
(2.458400) can0 382#01FFFFFFFFFFFFFF
(2.466800) can0 301#9B07880000154384
(2.476700) can0 301#9B07890000154278
(2.477200) can0 182#CF11392010010000
(2.477700) can0 282#103F5D110000129C
(2.478200) can0 382#01FFFFFFFFFFFFFF
(2.486700) can0 301#9B078A000015423C
(2.496700) can0 301#9B078B00001543C0
(2.497200) can0 182#CF11392010010000
(2.497700) can0 282#103F5D110000129C
(2.498200) can0 382#01FFFFFFFFFFFFFF
(2.501400) can0 18FF711E#00000000C8
(2.502000) can0 202#02100110F4010000
(2.502500) can0 202#01F4010000000000
(2.506700) can0 301#9B078C00001542B4
(2.516700) can0 301#9C078D010015133F
(2.517200) can0 182#CF11392010010000
(2.517700) can0 282#103F5D110000129C
(2.518200) can0 382#01FFFFFFFFFFFFFF
(2.526700) can0 301#9B078EFFFF1532CC
(2.536700) can0 301#9B078F00001542F0
(2.537200) can0 182#CF11392010010000
(2.537600) can0 282#10575D110000129C
(2.538100) can0 382#01FFFFFFFFFFFFFF
(2.546700) can0 301#9B07900000154524
(2.551700) can0 18FF711E#00000000C8
(2.552200) can0 202#02100110F4010000
(2.552700) can0 202#01F4010000000000
(2.556700) can0 301#9B079100001544D8
(2.557100) can0 182#CF11392010010000
(2.557600) can0 282#10575D110000129C
(2.558100) can0 382#01FFFFFFFFFFFFFF
(2.566600) can0 301#9B0792000015449C
(2.576600) can0 301#9B07930000154560
(2.577100) can0 182#CF11392010010000
(2.577600) can0 282#10575D110000129C
(2.578100) can0 382#01FFFFFFFFFFFFFF
(2.586700) can0 301#9B07940000154414
(2.596600) can0 301#9B079500001545E8
(2.597100) can0 182#CF11392010010000
(2.597600) can0 282#10575D110000129C
(2.598100) can0 382#01FFFFFFFFFFFFFF
(2.601500) can0 18FF711E#00000000C8
(2.601900) can0 202#02100110F4010000
(2.602400) can0 202#01F4010000000000
(2.606600) can0 301#9B079600001545AC
(2.616600) can0 301#9B07970000154450
(2.617300) can0 182#CF11392010010000
(2.617800) can0 282#10575D110000129C
(2.618200) can0 382#01FFFFFFFFFFFFFF
(2.626600) can0 301#9B07980000154744
(2.636600) can0 301#9B079900001546B8
(2.637100) can0 182#CF11392010010000
(2.637600) can0 282#10575D110000129C
(2.638100) can0 382#01FFFFFFFFFFFFFF
(2.646600) can0 301#9B079A00001546FC
(2.651400) can0 18FF711E#00000000C8
(2.651900) can0 202#02100110F4010000
(2.652400) can0 202#01F4010000000000
(2.656500) can0 301#9B079B0000154700
(2.657100) can0 182#CF11392010010000
(2.657500) can0 282#10575D110000129C
(2.658000) can0 382#01FFFFFFFFFFFFFF
(2.666600) can0 301#9B079C0000154674
(2.676600) can0 301#9B079D0000154788
(2.677100) can0 182#CF11392010010000
(2.677600) can0 282#10575D110000129C
(2.678000) can0 382#01FFFFFFFFFFFFFF
(2.686500) can0 301#9B079E00001547CC
(2.696500) can0 301#9B079F0000154630
(2.697000) can0 182#CF11392010010000
(2.697500) can0 282#104F5D110000129C
(2.698000) can0 382#01FFFFFFFFFFFFFF
(2.701400) can0 18FF711E#00000000C8
(2.701900) can0 202#02100110F4010000
(2.702400) can0 202#01F4010000000000
(2.706500) can0 301#9B07A00000154A24
(2.716500) can0 301#9B07A10000154BD8
(2.717000) can0 182#CF11392010010000
(2.717500) can0 282#104F5D110000129C
(2.718000) can0 382#01FFFFFFFFFFFFFF
(2.726500) can0 301#9B07A20000154B9C
(2.736500) can0 301#9C07A30100151A17
(2.737100) can0 182#CF11392010010000
(2.737500) can0 282#104F5D1100001296
(2.738000) can0 382#01FFFFFFFFFFFFFF
(2.746500) can0 301#9B07A4FFFF153AD4
(2.751400) can0 18FF711E#00000000C8
(2.751900) can0 202#02100110F4010000
(2.752400) can0 202#01F4010000000000
(2.756500) can0 301#9B07A50000154AE8
(2.757300) can0 182#CF11392010010000
(2.757700) can0 282#104F5D1100001296
(2.758200) can0 382#01FFFFFFFFFFFFFF
(2.766500) can0 301#9B07A60000154AAC
(2.776400) can0 301#9B07A70000154B50
(2.777000) can0 182#CF11392010010000
(2.777500) can0 282#104F5D1100001296
(2.778000) can0 382#01FFFFFFFFFFFFFF
(2.786400) can0 301#9B07A80000154844
(2.796400) can0 301#9B07A900001549B8
(2.797000) can0 182#CF11392010010000
(2.797500) can0 282#104F5D1100001296
(2.797900) can0 382#01FFFFFFFFFFFFFF
(2.801400) can0 18FF711E#00000000C8
(2.801900) can0 202#02100110F4010000
(2.802400) can0 202#01F4010000000000
(2.806400) can0 301#9B07AA00001549FC
(2.816400) can0 301#9B07AB0000154800
(2.817000) can0 182#CF11392010010000
(2.817500) can0 282#104F5D1100001296
(2.818000) can0 382#01FFFFFFFFFFFFFF
(2.826400) can0 301#9B07AC0000154974
(2.836400) can0 301#9B07AD0000154888
(2.837200) can0 182#CF11392010010000
(2.837700) can0 282#104F5D1100001296
(2.838200) can0 382#01FFFFFFFFFFFFFF
(2.846400) can0 301#9B07AE00001548CC
(2.851400) can0 18FF711E#00000000C8
(2.851900) can0 202#02100110F4010000
(2.852400) can0 202#01F4010000000000
(2.856400) can0 301#9B07AF0000154930
(2.856900) can0 182#CF11392010010000
(2.857500) can0 282#104F5D1100001296
(2.857900) can0 382#01FFFFFFFFFFFFFF
(2.866300) can0 301#9B07B00000154EE4
(2.876300) can0 301#9B07B10000154F18
(2.877000) can0 182#CF11392010010000
(2.877400) can0 282#10575D1100001296
(2.877900) can0 382#01FFFFFFFFFFFFFF
(2.886300) can0 301#9B07B20000154F5C
(2.896300) can0 301#9B07B30000154EA0
(2.897000) can0 182#CF11392010010000
(2.897500) can0 282#10575D1100001296
(2.898000) can0 382#01FFFFFFFFFFFFFF
(2.901400) can0 18FF711E#00000000C8
(2.901900) can0 202#02100110F4010000
(2.902400) can0 202#01F4010000000000
(2.906300) can0 301#9B07B40000154FD4
(2.916300) can0 301#9B07B50000154E28
(2.916900) can0 182#CF11392010010000
(2.917400) can0 282#10575D110000128B
(2.917900) can0 382#01FFFFFFFFFFFFFF
(2.926300) can0 301#9B07B60000154E6C
(2.936300) can0 301#9B07B70000154F90
(2.937000) can0 182#CF11392010010000
(2.937500) can0 282#10575D110000128B
(2.938000) can0 382#01FFFFFFFFFFFFFF
(2.946300) can0 301#9B07B80000154C84
(2.951400) can0 18FF711E#00000000C8
(2.951800) can0 202#02100110F4010000
(2.952400) can0 202#01F4010000000000
(2.956200) can0 301#9B07B90000154D78
(2.957000) can0 182#CF11392010010000
(2.957400) can0 282#10575D110000128B
(2.957900) can0 382#01FFFFFFFFFFFFFF
(2.966300) can0 301#9B07BA0000154D3C
(2.976200) can0 301#9B07BB0000154CC0
(2.976900) can0 182#CF11392010010000
(2.977400) can0 282#10575D110000128B
(2.977900) can0 382#01FFFFFFFFFFFFFF
(2.986200) can0 301#9B07BC0000154DB4
(2.996200) can0 301#9B07BD0000154C48
(2.997000) can0 182#CF11392010010000
(2.997500) can0 282#10575D110000128B
(2.998000) can0 382#01FFFFFFFFFFFFFF
(3.001400) can0 18FF711E#00000000C8
(3.002000) can0 202#02100110F4010000
(3.002500) can0 202#01F4010000000000
(3.006200) can0 301#9B07BE0000154C0C
(3.016200) can0 301#9B07BF0000154DF0
(3.017000) can0 182#CF11392010010000
(3.017400) can0 282#10575D110000128B
(3.017900) can0 382#01FFFFFFFFFFFFFF
(3.026200) can0 301#9B07C00000155424
(3.036200) can0 301#9B07C100001555D8
(3.036900) can0 182#CF11392010010000
(3.037400) can0 282#10575D110000128B
(3.037900) can0 382#01FFFFFFFFFFFFFF
(3.046100) can0 301#9B07C2000015559C
(3.051400) can0 18FF711E#00000000C8
(3.051900) can0 202#02100110F4010000
(3.052400) can0 202#01F4010000000000
(3.056200) can0 301#9C07C30100150417
(3.057400) can0 182#CF11392010010000
(3.057900) can0 282#10575D110000128B
(3.058400) can0 382#01FFFFFFFFFFFFFF
(3.066100) can0 301#9B07C4FFFF1524D4
(3.076100) can0 301#9B07C500001554E8
(3.076900) can0 182#CF11392010010000
(3.077400) can0 282#10575D110000128B
(3.077800) can0 382#01FFFFFFFFFFFFFF
(3.086100) can0 301#9B07C600001554AC
(3.096100) can0 301#9B07C70000155550
(3.096900) can0 182#CF11392010010000
(3.097400) can0 282#10575D1100001289
(3.097800) can0 382#01FFFFFFFFFFFFFF
(3.101600) can0 18FF711E#00000000C8
(3.102100) can0 202#02100110F4010000
(3.102600) can0 202#01F4010000000000
(3.106100) can0 301#9B07C80000155644
(3.116100) can0 301#9B07C900001557B8
(3.116900) can0 182#CF11392010010000
(3.117300) can0 282#10575D1100001289
(3.117900) can0 382#01FFFFFFFFFFFFFF
(3.126100) can0 301#9B07CA00001557FC
(3.136100) can0 301#9C07CB0100150677
(3.137000) can0 182#CF11392010010000
(3.137400) can0 282#10575D1100001289
(3.137900) can0 382#01FFFFFFFFFFFFFF
(3.146000) can0 301#9B07CCFFFF1526B4
(3.151400) can0 18FF711E#00000000C8
(3.151900) can0 202#02100110F4010000
(3.152400) can0 202#01F4010000000000
(3.156100) can0 301#9B07CD0000155688
(3.156900) can0 182#CF11392010010000
(3.157400) can0 282#10575D1100001289
(3.157900) can0 382#01FFFFFFFFFFFFFF
(3.166100) can0 301#9B07CE00001556CC
(3.176000) can0 301#9C07CF0100150747
(3.176900) can0 182#CF11392010010000
(3.177400) can0 282#10575D1100001289
(3.177800) can0 382#01FFFFFFFFFFFFFF
(3.186000) can0 301#9B07D0FFFF152124
(3.196000) can0 301#9B07D10000155118
(3.196900) can0 182#CF11392010010000
(3.197300) can0 282#10575D1100001289
(3.197800) can0 382#01FFFFFFFFFFFFFF
(3.201400) can0 18FF711E#00000000C8
(3.201900) can0 202#02100110F4010000
(3.202400) can0 202#01F4010000000000
(3.206000) can0 301#9B07D2000015515C
(3.216000) can0 301#9B07D300001550A0
(3.216900) can0 182#CF11392010010000
(3.217300) can0 282#10575D1100001289
(3.217800) can0 382#01FFFFFFFFFFFFFF
(3.226000) can0 301#9B07D400001551D4
(3.236000) can0 301#9B07D50000155028
(3.236800) can0 182#CF11392010010000
(3.237300) can0 282#10575D1100001289
(3.237800) can0 382#01FFFFFFFFFFFFFF
(3.246000) can0 301#9B07D6000015506C
(3.251400) can0 18FF711E#00000000C8
(3.251800) can0 202#02100110F4010000
(3.252300) can0 202#01F4010000000000
(3.256000) can0 301#9B07D70000155190
(3.257100) can0 182#CF11392010010000
(3.257600) can0 282#10575D1100001296
(3.258000) can0 382#01FFFFFFFFFFFFFF
(3.265900) can0 301#9B07D80000155284
(3.275900) can0 301#9C07D9010015030F
(3.277100) can0 182#CF11392010010000
(3.277500) can0 282#10575D1100001296
(3.278100) can0 382#01FFFFFFFFFFFFFF
(3.286000) can0 301#9B07DAFFFF1522FC
(3.295900) can0 301#9B07DB00001552C0
(3.296900) can0 182#CF11392010010000
(3.297300) can0 282#10575D1100001296
(3.297800) can0 382#01FFFFFFFFFFFFFF
(3.301400) can0 18FF711E#00000000C8
(3.301800) can0 202#02100110F4010000
(3.302300) can0 202#01F4010000000000
(3.305900) can0 301#9B07DC00001553B4
(3.315900) can0 301#9B07DD0000155248
(3.316800) can0 182#CF11392010010000
(3.317300) can0 282#10575D1100001296
(3.317800) can0 382#01FFFFFFFFFFFFFF
(3.325900) can0 301#9B07DE000015520C
(3.335900) can0 301#9B07DF00001553F0
(3.336800) can0 182#CF11392010010000
(3.337300) can0 282#10575D1100001296
(3.337800) can0 382#01FFFFFFFFFFFFFF
(3.345900) can0 301#9B07E00000155FE4
(3.351300) can0 18FF711E#00000000C8
(3.351800) can0 202#02100110F4010000
(3.352300) can0 202#01F4010000000000
(3.355800) can0 301#9B07E10000155E18
(3.357100) can0 182#CF11392010010000
(3.357500) can0 282#10575D1100001296
(3.358000) can0 382#01FFFFFFFFFFFFFF
(3.365900) can0 301#9B07E20000155E5C
(3.371100) can0 181#8136399000090000
(3.371600) can0 281#0000000000000063
(3.372100) can0 681#D200D200FFFFFFFF
(3.375900) can0 301#9B07E30000155FA0
(3.376800) can0 182#CF11392010010000
(3.377300) can0 282#10575D1100001296
(3.377700) can0 382#01FFFFFFFFFFFFFF
(3.385800) can0 301#9B07E40000155ED4
(3.395800) can0 301#9B07E50000155F28
(3.396800) can0 182#CF11392010010000
(3.397200) can0 282#10575D1100001296
(3.397700) can0 382#01FFFFFFFFFFFFFF
(3.401400) can0 18FF711E#00000000C8
(3.401800) can0 202#02100110F4010000
(3.402300) can0 202#01F4010000000000
(3.405800) can0 301#9B07E60000155F6C
(3.415800) can0 301#9B07E70000155E90
(3.416800) can0 182#CF11392010010000
(3.417200) can0 282#101F5D1100001296
(3.417800) can0 382#01FFFFFFFFFFFFFF
(3.425800) can0 301#9B07E80000155D84
(3.435800) can0 301#9B07E90000155C78
(3.436800) can0 182#CF11392010010000
(3.437300) can0 282#101F5D110000129C
(3.437800) can0 382#01FFFFFFFFFFFFFF
(3.445800) can0 301#9B07EA0000155C3C
(3.451300) can0 18FF711E#00000000C8
(3.451800) can0 202#02100110F4010000
(3.452300) can0 202#01F4010000000000
(3.455800) can0 301#9B07EB0000155DC0
(3.456700) can0 182#CF11392010010000
(3.457200) can0 282#101F5D110000129C
(3.457700) can0 382#01FFFFFFFFFFFFFF
(3.465800) can0 301#9B07EC0000155CB4
(3.475700) can0 301#9B07ED0000155D48
(3.476800) can0 182#CF11392010010000
(3.477200) can0 282#101F5D110000129C
(3.477700) can0 382#01FFFFFFFFFFFFFF
(3.485700) can0 301#9B07EE0000155D0C
(3.495700) can0 301#9B07EF0000155CF0
(3.496900) can0 182#CF11392010010000
(3.497400) can0 282#101F5D110000129C
(3.497900) can0 382#01FFFFFFFFFFFFFF
(3.501300) can0 18FF711E#00000000C8
(3.501800) can0 202#02100110F4010000
(3.502300) can0 202#01F4010000000000
(3.505700) can0 301#9B07F00000155B24
(3.515700) can0 301#9C07F10100150AAF
(3.516800) can0 182#CF11392010010000
(3.517300) can0 282#101F5D110000129C
(3.517800) can0 382#01FFFFFFFFFFFFFF
(3.525700) can0 301#9B07F2FFFF152B5C
(3.535700) can0 301#9B07F30000155B60
(3.536700) can0 182#CF11392010010000
(3.537200) can0 282#101F5D110000129C
(3.537700) can0 382#01FFFFFFFFFFFFFF
(3.545700) can0 301#9B07F40000155A14
(3.551300) can0 18FF711E#00000000C8
(3.551900) can0 202#02100110F4010000
(3.552500) can0 202#01F4010000000000
(3.555700) can0 301#9B07F50000155BE8
(3.556700) can0 182#CF11392010010000
(3.557200) can0 282#101F5D110000129C
(3.557700) can0 382#01FFFFFFFFFFFFFF
(3.565600) can0 301#9B07F60000155BAC
(3.575600) can0 301#9B07F70000155A50
(3.576800) can0 182#CF11392010010000
(3.577200) can0 282#10475D110000129C
(3.577800) can0 382#01FFFFFFFFFFFFFF
(3.585600) can0 301#9B07F80000155944
(3.595600) can0 301#9B07F900001558B8
(3.596700) can0 182#CF11392010010000
(3.597200) can0 282#10475D110000129C
(3.597700) can0 382#01FFFFFFFFFFFFFF
(3.601300) can0 18FF711E#00000000C8
(3.601800) can0 202#02100110F4010000
(3.602200) can0 202#01F4010000000000
(3.605600) can0 301#9B07FA00001558FC
(3.615600) can0 301#9C07FB0100150977
(3.616800) can0 182#CF11392010010000
(3.617200) can0 282#10475D110000129C
(3.617700) can0 382#01FFFFFFFFFFFFFF
(3.625500) can0 301#9B07FCFFFF1529B4
(3.635600) can0 301#9B07FD0000155988
(3.636800) can0 182#CF11392010010000
(3.637200) can0 282#10475D110000129C
(3.637700) can0 382#01FFFFFFFFFFFFFF
(3.645600) can0 301#9B07FE00001559CC
(3.651400) can0 18FF711E#00000000C8
(3.652000) can0 202#02100110F4010000
(3.652400) can0 202#01F4010000000000
(3.655500) can0 301#9B07FF0000155830
(3.656900) can0 182#CF11392010010000
(3.657400) can0 282#10475D110000129C
(3.657900) can0 382#01FFFFFFFFFFFFFF
(3.665500) can0 301#9B07000000156824
(3.675500) can0 301#9B070100001569D8
(3.676700) can0 182#CF11392010010000
(3.677200) can0 282#10475D110000129C
(3.677700) can0 382#01FFFFFFFFFFFFFF
(3.685500) can0 301#9B0702000015699C
(3.695500) can0 301#9B07030000156860
(3.696700) can0 182#CF11392010010000
(3.697100) can0 282#10475D110000129C
(3.697600) can0 382#01FFFFFFFFFFFFFF
(3.701300) can0 18FF711E#00000000C8
(3.701700) can0 202#02100110F4010000
(3.702200) can0 202#01F4010000000000
(3.705500) can0 301#9B07040000156914
(3.715400) can0 301#9B070500001568E8
(3.716900) can0 182#CF11392010010000
(3.717400) can0 282#10475D110000129C
(3.717900) can0 382#01FFFFFFFFFFFFFF
(3.725400) can0 301#9B070600001568AC
(3.735500) can0 301#9B07070000156950
(3.736600) can0 182#CF11392010010000
(3.737100) can0 282#10475D110000129C
(3.737600) can0 382#01FFFFFFFFFFFFFF
(3.745400) can0 301#9B07080000156A44
(3.751200) can0 18FF711E#00000000C8
(3.751700) can0 202#02100110F4010000
(3.752200) can0 202#01F4010000000000
(3.755400) can0 301#9B07090000156BB8
(3.756900) can0 182#CF11392010010000
(3.757400) can0 282#10375D110000129C
(3.757900) can0 382#01FFFFFFFFFFFFFF
(3.765400) can0 301#9B070A0000156BFC
(3.775400) can0 301#9B070B0000156A00
(3.776700) can0 182#CF11392010010000
(3.777200) can0 282#10375D110000129C
(3.777600) can0 382#01FFFFFFFFFFFFFF
(3.785400) can0 301#9B070C0000156B74
(3.795400) can0 301#9C070D0100153AFF
(3.796700) can0 182#CF11392010010000
(3.797100) can0 282#10375D110000129C
(3.797700) can0 382#01FFFFFFFFFFFFFF
(3.801200) can0 18FF711E#00000000C8
(3.801700) can0 202#02100110F4010000
(3.802200) can0 202#01F4010000000000
(3.805300) can0 301#9B070EFFFF151B0C
(3.815300) can0 301#9B070F0000156B30
(3.816600) can0 182#CF11392010010000
(3.817100) can0 282#10375D110000129C
(3.817600) can0 382#01FFFFFFFFFFFFFF
(3.825300) can0 301#9B07100000156CE4
(3.835300) can0 301#9B07110000156D18
(3.836600) can0 182#CF11392010010000
(3.837100) can0 282#10375D110000129C
(3.837600) can0 382#01FFFFFFFFFFFFFF
(3.845300) can0 301#9B07120000156D5C
(3.851200) can0 18FF711E#00000000C8
(3.851700) can0 202#02100110F4010000
(3.852200) can0 202#01F4010000000000
(3.855300) can0 301#9B07130000156CA0
(3.856600) can0 182#CF11392010010000
(3.857100) can0 282#10375D110000129C
(3.857600) can0 382#01FFFFFFFFFFFFFF
(3.865300) can0 301#9B07140000156DD4
(3.875300) can0 301#9B07150000156C28
(3.876600) can0 182#CF11392010010000
(3.877100) can0 282#10375D110000129C
(3.877600) can0 382#01FFFFFFFFFFFFFF
(3.885300) can0 301#9B07160000156C6C
(3.895200) can0 301#9B07170000156D90
(3.896600) can0 182#CF11392010010000
(3.897100) can0 282#10375D110000129C
(3.897600) can0 382#01FFFFFFFFFFFFFF
(3.901200) can0 18FF711E#00000000C8
(3.901700) can0 202#02100110F4010000
(3.902200) can0 202#01F4010000000000
(3.905200) can0 301#9B07180000156E84
(3.915200) can0 301#9B07190000156F78
(3.916700) can0 182#CF11392010010000
(3.917100) can0 282#10375D110000129C
(3.917600) can0 382#01FFFFFFFFFFFFFF
(3.925200) can0 301#9B071A0000156F3C
(3.935200) can0 301#9B071B0000156EC0
(3.936800) can0 182#CF11392010010000
(3.937300) can0 282#103F5D110000129C
(3.937800) can0 382#01FFFFFFFFFFFFFF
(3.945200) can0 301#9B071C0000156FB4
(3.951200) can0 18FF711E#00000000C8
(3.951700) can0 202#02100110F4010000
(3.952200) can0 202#01F4010000000000
(3.955200) can0 301#9B071D0000156E48
(3.956800) can0 182#CF11392010010000
(3.957300) can0 282#103F5D110000129C
(3.957800) can0 382#01FFFFFFFFFFFFFF
(3.965200) can0 301#9B071E0000156E0C
(3.975200) can0 301#9B071F0000156FF0
(3.976600) can0 182#CF11392010010000
(3.977000) can0 282#103F5D11000012C3
(3.977500) can0 382#01FFFFFFFFFFFFFF
(3.985200) can0 301#9B072000001563E4
(3.995100) can0 301#9B07210000156218
(3.996600) can0 182#CF11392010010000
(3.997100) can0 282#103F5D11000012C3
(3.997600) can0 382#01FFFFFFFFFFFFFF
(4.001200) can0 18FF711E#00000000C8
(4.001600) can0 202#02100110F4010000
(4.002200) can0 202#01F4010000000000
(4.005100) can0 301#9B0722000015625C
(4.015100) can0 301#9B072300001563A0
(4.016500) can0 182#CF11392010010000
(4.017000) can0 282#103F5D11000012C3
(4.017500) can0 382#01FFFFFFFFFFFFFF
(4.025100) can0 301#9B072400001562D4
(4.035100) can0 301#9B07250000156328
(4.036600) can0 182#CF11392010010000
(4.037000) can0 282#103F5D11000012C3
(4.037500) can0 382#01FFFFFFFFFFFFFF
(4.045100) can0 301#9B0726000015636C
(4.051200) can0 18FF711E#00000000C8
(4.051700) can0 202#02100110F4010000
(4.052200) can0 202#01F4010000000000
(4.055100) can0 301#9B07270000156290
(4.056500) can0 182#CF11392010010000
(4.057000) can0 282#103F5D11000012C3
(4.057500) can0 382#01FFFFFFFFFFFFFF
(4.065100) can0 301#9C072801001531F3
(4.075000) can0 301#9B0729FFFF1511B8
(4.076600) can0 182#CF11392010010000
(4.077000) can0 282#103F5D11000012C3
(4.077600) can0 382#01FFFFFFFFFFFFFF
(4.085000) can0 301#9B072A000015603C
(4.095000) can0 301#9B072B00001561C0
(4.096600) can0 182#CF11392010010000
(4.097100) can0 282#103F5D11000012C3
(4.097600) can0 382#01FFFFFFFFFFFFFF
(4.101200) can0 18FF711E#00000000C8
(4.101900) can0 202#02100110F4010000
(4.102400) can0 202#01F4010000000000
(4.105000) can0 301#9B072C00001560B4
(4.115000) can0 301#9B072D0000156148
(4.116500) can0 182#CF11392010010000
(4.117000) can0 282#103F5D11000012C3
(4.117500) can0 382#01FFFFFFFFFFFFFF
(4.125000) can0 301#9B072E000015610C
(4.135000) can0 301#9B072F00001560F0
(4.136600) can0 182#CF11392010010000
(4.137100) can0 282#103F5D11000012AD
(4.137600) can0 382#01FFFFFFFFFFFFFF
(4.145000) can0 301#9B07300000156724
(4.151200) can0 18FF711E#00000000C8
(4.151700) can0 202#02100110F4010000
(4.152200) can0 202#01F4010000000000
(4.155000) can0 301#9B073100001566D8
(4.156800) can0 182#CF11392010010000
(4.157200) can0 282#103F5D11000012AD
(4.157700) can0 382#01FFFFFFFFFFFFFF
(4.165000) can0 301#9B0732000015669C
(4.175000) can0 301#9B07330000156760
(4.176600) can0 182#CF11392010010000
(4.177000) can0 282#103F5D11000012AD
(4.177600) can0 382#01FFFFFFFFFFFFFF
(4.185000) can0 301#9B07340000156614
(4.195000) can0 301#9B073500001567E8
(4.196600) can0 182#CF11392010010000
(4.197100) can0 282#103F5D11000012AD
(4.197500) can0 382#01FFFFFFFFFFFFFF
(4.201400) can0 18FF711E#00000000C8
(4.201800) can0 202#02100110F4010000
(4.202300) can0 202#01F4010000000000
(4.204900) can0 301#9B073600001567AC
(4.214900) can0 301#9B07370000156650
(4.216500) can0 182#CF11392010010000
(4.217000) can0 282#103F5D11000012AD
(4.217500) can0 382#01FFFFFFFFFFFFFF
(4.224900) can0 301#9B07380000156544
(4.234900) can0 301#9B073900001564B8
(4.236600) can0 182#CF11392010010000
(4.237000) can0 282#103F5D11000012AD
(4.237500) can0 382#01FFFFFFFFFFFFFF
(4.244900) can0 301#9B073A00001564FC
(4.251200) can0 18FF711E#00000000C8
(4.251700) can0 202#02100110F4010000
(4.252100) can0 202#01F4010000000000
(4.254900) can0 301#9B073B0000156500
(4.256500) can0 182#CF11392010010000
(4.257000) can0 282#103F5D11000012AD
(4.257500) can0 382#01FFFFFFFFFFFFFF
(4.264800) can0 301#9B073C0000156474
(4.274900) can0 301#9B073D0000156588
(4.276500) can0 182#CF11392010010000
(4.277000) can0 282#103F5D11000012AD
(4.277400) can0 382#01FFFFFFFFFFFFFF
(4.284900) can0 301#9B073E00001565CC
(4.294800) can0 301#9C073F0100153447
(4.296500) can0 182#CF11392010010000
(4.296900) can0 282#10075D11000012AD
(4.297400) can0 382#01FFFFFFFFFFFFFF
(4.301200) can0 18FF711E#00000000C8
(4.301600) can0 202#02100110F4010000
(4.302100) can0 202#01F4010000000000
(4.304800) can0 301#9B0740FFFF150C24
(4.314800) can0 301#9B07410000157C18
(4.316500) can0 182#CF11392010010000
(4.317000) can0 282#10075D11000012AF
(4.317500) can0 382#01FFFFFFFFFFFFFF
(4.324800) can0 301#9B07420000157C5C
(4.334800) can0 301#9B07430000157DA0
(4.336400) can0 182#CF11392010010000
(4.336900) can0 282#10075D11000012AF
(4.337400) can0 382#01FFFFFFFFFFFFFF
(4.344800) can0 301#9B07440000157CD4
(4.351200) can0 18FF711E#00000000C8
(4.351600) can0 202#02100110F4010000
(4.352100) can0 202#01F4010000000000
(4.354700) can0 301#9B07450000157D28
(4.356500) can0 182#CF11392010010000
(4.356900) can0 282#10075D11000012AF
(4.357400) can0 382#01FFFFFFFFFFFFFF
(4.364700) can0 301#9B07460000157D6C
(4.370900) can0 181#8136399000090000
(4.371400) can0 281#0000000000000063
(4.371900) can0 681#D200D200FFFFFFFF
(4.374700) can0 301#9B07470000157C90
(4.376700) can0 182#CF11392010010000
(4.377100) can0 282#10075D11000012AF
(4.377700) can0 382#01FFFFFFFFFFFFFF
(4.384700) can0 301#9B07480000157F84
(4.394700) can0 301#9B07490000157E78
(4.396400) can0 182#CF11392010010000
(4.396900) can0 282#10075D11000012AF
(4.397400) can0 382#01FFFFFFFFFFFFFF
(4.401100) can0 18FF711E#00000000C8
(4.401600) can0 202#02100110F4010000
(4.402100) can0 202#01F4010000000000
(4.404700) can0 301#9B074A0000157E3C
(4.414700) can0 301#9B074B0000157FC0
(4.416500) can0 182#CF11392010010000
(4.417000) can0 282#10075D11000012AF
(4.417500) can0 382#01FFFFFFFFFFFFFF
(4.424700) can0 301#9B074C0000157EB4
(4.434700) can0 301#9B074D0000157F48
(4.436400) can0 182#CF11392010010000
(4.436900) can0 282#10075D11000012AF
(4.437400) can0 382#01FFFFFFFFFFFFFF
(4.444600) can0 301#9B074E0000157F0C
(4.451200) can0 18FF711E#00000000C8
(4.451600) can0 202#02100110F4010000
(4.452200) can0 202#01F4010000000000
(4.454600) can0 301#9B074F0000157EF0
(4.456400) can0 182#CF11392010010000
(4.456900) can0 282#10375D11000012AF
(4.457400) can0 382#01FFFFFFFFFFFFFF
(4.464600) can0 301#9B07500000157924
(4.474600) can0 301#9B075100001578D8
(4.476500) can0 182#CF11392010010000
(4.476900) can0 282#10375D11000012AF
(4.477400) can0 382#01FFFFFFFFFFFFFF
(4.484600) can0 301#9B0752000015789C
(4.494600) can0 301#9B07530000157960
(4.496400) can0 182#CF11392010010000
(4.496900) can0 282#10375D11000012A2
(4.497400) can0 382#01FFFFFFFFFFFFFF
(4.501100) can0 18FF711E#00000000C8
(4.501600) can0 202#02100110F4010000
(4.502100) can0 202#01F4010000000000
(4.504600) can0 301#9B07540000157814
(4.514500) can0 301#9B075500001579E8
(4.516400) can0 182#CF11392010010000
(4.516900) can0 282#10375D11000012A2
(4.517400) can0 382#01FFFFFFFFFFFFFF
(4.524600) can0 301#9B075600001579AC
(4.534500) can0 301#9B07570000157850
(4.536400) can0 182#CF11392010010000
(4.536900) can0 282#10375D11000012A2
(4.537400) can0 382#01FFFFFFFFFFFFFF
(4.544500) can0 301#9B07580000157B44
(4.551100) can0 18FF711E#00000000C8
(4.551600) can0 202#02100110F4010000
(4.552100) can0 202#01F4010000000000
(4.554500) can0 301#9B07590000157AB8
(4.556600) can0 182#CF11392010010000
(4.557100) can0 282#10375D11000012A2
(4.557600) can0 382#01FFFFFFFFFFFFFF
(4.564500) can0 301#9B075A0000157AFC
(4.574500) can0 301#9C075B0100152B77
(4.576400) can0 182#CF11392010010000
(4.576900) can0 282#10375D11000012A2
(4.577400) can0 382#01FFFFFFFFFFFFFF
(4.584500) can0 301#9B075CFFFF150BB4
(4.594500) can0 301#9B075D0000157B88
(4.596500) can0 182#CF11392010010000
(4.597000) can0 282#10375D11000012A2
(4.597500) can0 382#01FFFFFFFFFFFFFF
(4.601100) can0 18FF711E#00000000C8
(4.601600) can0 202#02100110F4010000
(4.602100) can0 202#01F4010000000000
(4.604400) can0 301#9B075E0000157BCC
(4.614500) can0 301#9B075F0000157A30
(4.616400) can0 182#CF11392010010000
(4.616900) can0 282#10375D11000012A2
(4.617400) can0 382#01FFFFFFFFFFFFFF
(4.624400) can0 301#9B07600000157624
(4.634400) can0 301#9C076101001527AF
(4.636400) can0 182#CF11392010010000
(4.636900) can0 282#10475D11000012A2
(4.637400) can0 382#01FFFFFFFFFFFFFF
(4.644400) can0 301#9B0762FFFF15065C
(4.651100) can0 18FF711E#00000000C8
(4.651800) can0 202#02100110F4010000
(4.652300) can0 202#01F4010000000000
(4.654400) can0 301#9B07630000157660
(4.656400) can0 182#CF11392010010000
(4.656800) can0 282#10475D11000012A2
(4.657300) can0 382#01FFFFFFFFFFFFFF
(4.664400) can0 301#9C07640100152763
(4.674400) can0 301#9B0765FFFF150728
(4.676300) can0 182#CF11392010010000
(4.676800) can0 282#10475D110000129F
(4.677300) can0 382#01FFFFFFFFFFFFFF
(4.684400) can0 301#9B076600001576AC
(4.694400) can0 301#9B07670000157750
(4.696400) can0 182#CF11392010010000
(4.696900) can0 282#10475D110000129F
(4.697400) can0 382#01FFFFFFFFFFFFFF
(4.701100) can0 18FF711E#00000000C8
(4.701500) can0 202#02100110F4010000
(4.702100) can0 202#01F4010000000000
(4.704400) can0 301#9B07680000157444
(4.714300) can0 301#9B076900001575B8
(4.716400) can0 182#CF11392010010000
(4.716900) can0 282#10475D110000129F
(4.717400) can0 382#01FFFFFFFFFFFFFF
(4.724300) can0 301#9B076A00001575FC
(4.734300) can0 301#9B076B0000157400
(4.736300) can0 182#CF11392010010000
(4.736800) can0 282#10475D110000129F
(4.737300) can0 382#01FFFFFFFFFFFFFF
(4.744300) can0 301#9B076C0000157574
(4.751200) can0 18FF711E#00000000C8
(4.751700) can0 202#02100110F4010000
(4.752200) can0 202#01F4010000000000
(4.754300) can0 301#9B076D0000157488
(4.756300) can0 182#CF11392010010000
(4.756800) can0 282#10475D110000129F
(4.757300) can0 382#01FFFFFFFFFFFFFF
(4.764300) can0 301#9B076E00001574CC
(4.774300) can0 301#9B076F0000157530
(4.776300) can0 182#CF11392010010000
(4.776800) can0 282#10475D110000129F
(4.777300) can0 382#01FFFFFFFFFFFFFF
(4.784300) can0 301#9B077000001572E4
(4.794300) can0 301#9B07710000157318
(4.796400) can0 182#CF11392010010000
(4.796800) can0 282#10475D110000129F
(4.797300) can0 382#01FFFFFFFFFFFFFF
(4.801000) can0 18FF711E#00000000C8
(4.801500) can0 202#02100110F4010000
(4.802000) can0 202#01F4010000000000
(4.804200) can0 301#9B0772000015735C
(4.814200) can0 301#9B077300001572A0
(4.816500) can0 182#CF11392010010000
(4.817000) can0 282#10475D110000129F
(4.817500) can0 382#01FFFFFFFFFFFFFF
(4.824200) can0 301#9B077400001573D4
(4.834200) can0 301#9B07750000157228
(4.836300) can0 182#CF11392010010000
(4.836800) can0 282#10475D110000129F
(4.837300) can0 382#01FFFFFFFFFFFFFF
(4.844200) can0 301#9B0776000015726C
(4.851000) can0 18FF711E#00000000C8
(4.851500) can0 202#02100110F4010000
(4.852000) can0 202#01F4010000000000
(4.854200) can0 301#9B07770000157390
(4.856600) can0 182#CF11392010010000
(4.857000) can0 282#10475D110000129C
(4.857500) can0 382#01FFFFFFFFFFFFFF
(4.864200) can0 301#9B07780000157084
(4.874200) can0 301#9B07790000157178
(4.876300) can0 182#CF11392010010000
(4.876800) can0 282#10475D110000129C
(4.877300) can0 382#01FFFFFFFFFFFFFF
(4.884200) can0 301#9B077A000015713C
(4.894100) can0 301#9B077B00001570C0
(4.896300) can0 182#CF11392010010000
(4.896800) can0 282#10475D110000129C
(4.897300) can0 382#01FFFFFFFFFFFFFF
(4.901000) can0 18FF711E#00000000C8
(4.901500) can0 202#02100110F4010000
(4.902000) can0 202#01F4010000000000
(4.904100) can0 301#9B077C00001571B4
(4.914100) can0 301#9C077D010015203F
(4.916200) can0 182#CF11392010010000
(4.916700) can0 282#10475D110000129C
(4.917200) can0 382#01FFFFFFFFFFFFFF
(4.924100) can0 301#9B077EFFFF1501CC
(4.934100) can0 301#9B077F00001571F0
(4.936300) can0 182#CF11392010010000
(4.936800) can0 282#10475D110000129C
(4.937300) can0 382#01FFFFFFFFFFFFFF
(4.944100) can0 301#9B078000001541E4
(4.951000) can0 18FF711E#00000000C8
(4.951500) can0 202#02100110F4010000
(4.952000) can0 202#01F4010000000000
(4.954100) can0 301#9B07810000154018
(4.956500) can0 182#CF11392010010000
(4.957000) can0 282#10475D110000129C
(4.957500) can0 382#01FFFFFFFFFFFFFF
(4.964100) can0 301#9B0782000015405C
(4.974100) can0 301#9B078300001541A0
(4.976300) can0 182#CF11392010010000
(4.976700) can0 282#10475D110000129C
(4.977300) can0 382#01FFFFFFFFFFFFFF
(4.984000) can0 301#9C078401001510A3
(4.994000) can0 301#9B0785FFFF1530E8
(4.996300) can0 182#CF11392010010000
(4.996800) can0 282#104F5D110000129C
(4.997300) can0 382#01FFFFFFFFFFFFFF
(5.001000) can0 18FF711E#00000000C8
(5.001500) can0 202#02100110F4010000
(5.002000) can0 202#01F4010000000000
(5.004100) can0 301#9B0786000015416C
(5.014000) can0 301#9B07870000154090
(5.016300) can0 182#CF11392010010000
(5.016700) can0 282#104F5D110000129C
(5.017200) can0 382#01FFFFFFFFFFFFFF
(5.024000) can0 301#9B07880000154384
(5.034000) can0 301#9B07890000154278
(5.036500) can0 182#CF11392010010000
(5.037000) can0 282#104F5D110000129C
(5.037500) can0 382#01FFFFFFFFFFFFFF
(5.044000) can0 301#9B078A000015423C
(5.051000) can0 18FF711E#00000000C8
(5.051500) can0 202#02100110F4010000
(5.052000) can0 202#01F4010000000000
(5.054000) can0 301#9B078B00001543C0
(5.056200) can0 182#CF11392010010000
(5.056700) can0 282#104F5D110000129C
(5.057200) can0 382#01FFFFFFFFFFFFFF
(5.064000) can0 301#9B078C00001542B4
(5.073900) can0 301#9C078D010015133F
(5.076200) can0 182#CF11392010010000
(5.076700) can0 282#104F5D110000129C
(5.077100) can0 382#01FFFFFFFFFFFFFF
(5.084000) can0 301#9B078EFFFF1532CC
(5.094000) can0 301#9B078F00001542F0
(5.096300) can0 182#CF11392010010000
(5.096700) can0 282#104F5D110000129C
(5.097200) can0 382#01FFFFFFFFFFFFFF
(5.101000) can0 18FF711E#00000000C8
(5.101500) can0 202#02100110F4010000
(5.102000) can0 202#01F4010000000000
(5.103900) can0 301#9B07900000154524
(5.113900) can0 301#9B079100001544D8
(5.116200) can0 182#CF11392010010000
(5.116700) can0 282#104F5D110000129C
(5.117200) can0 382#01FFFFFFFFFFFFFF
(5.123900) can0 301#9C079201001514EB
(5.133900) can0 301#9B0793FFFF1534A0
(5.136200) can0 182#CF11392010010000
(5.136700) can0 282#104F5D110000129C
(5.137200) can0 382#01FFFFFFFFFFFFFF
(5.143900) can0 301#9B07940000154414
(5.151000) can0 18FF711E#00000000C8
(5.151500) can0 202#02100110F4010000
(5.152000) can0 202#01F4010000000000
(5.153900) can0 301#9B079500001545E8
(5.156200) can0 182#CF11392010010000
(5.156600) can0 282#104F5D110000129C
(5.157100) can0 382#01FFFFFFFFFFFFFF
(5.163900) can0 301#9B079600001545AC
(5.173900) can0 301#9B07970000154450
(5.176200) can0 182#CF11392010010000
(5.176600) can0 282#100F5D110000129C
(5.177100) can0 382#01FFFFFFFFFFFFFF
(5.183900) can0 301#9B07980000154744
(5.193800) can0 301#9B079900001546B8
(5.196200) can0 182#CF11392010010000
(5.196700) can0 282#100F5D1100001294
(5.197200) can0 382#01FFFFFFFFFFFFFF
(5.201000) can0 18FF711E#00000000C8
(5.201700) can0 202#02100110F4010000
(5.202200) can0 202#01F4010000000000
(5.203800) can0 301#9B079A00001546FC
(5.213800) can0 301#9B079B0000154700
(5.216200) can0 182#CF11392010010000
(5.216700) can0 282#100F5D1100001294
(5.217200) can0 382#01FFFFFFFFFFFFFF
(5.223800) can0 301#9B079C0000154674
(5.233800) can0 301#9B079D0000154788
(5.236200) can0 182#CF11392010010000
(5.236600) can0 282#100F5D1100001294
(5.237100) can0 382#01FFFFFFFFFFFFFF
(5.243800) can0 301#9B079E00001547CC
(5.251000) can0 18FF711E#00000000C8
(5.251400) can0 202#02100110F4010000
(5.252000) can0 202#01F4010000000000
(5.253800) can0 301#9B079F0000154630
(5.256300) can0 182#CF11392010010000
(5.256800) can0 282#100F5D1100001294
(5.257300) can0 382#01FFFFFFFFFFFFFF
(5.263800) can0 301#9B07A00000154A24
(5.273800) can0 301#9B07A10000154BD8
(5.276100) can0 182#CF11392010010000
(5.276600) can0 282#100F5D1100001294
(5.277100) can0 382#01FFFFFFFFFFFFFF
(5.283700) can0 301#9B07A20000154B9C
(5.293700) can0 301#9B07A30000154A60
(5.296100) can0 182#CF11392010010000
(5.296600) can0 282#100F5D1100001294
(5.297100) can0 382#01FFFFFFFFFFFFFF
(5.301100) can0 18FF711E#00000000C8
(5.301600) can0 202#02100110F4010000
(5.302100) can0 202#01F4010000000000
(5.303700) can0 301#9B07A40000154B14
(5.313700) can0 301#9B07A50000154AE8
(5.316200) can0 182#CF11392010010000
(5.316600) can0 282#100F5D1100001294
(5.317200) can0 382#01FFFFFFFFFFFFFF
(5.323700) can0 301#9B07A60000154AAC
(5.333700) can0 301#9B07A70000154B50
(5.336200) can0 182#CF11392010010000
(5.336600) can0 282#10475D1100001294
(5.337100) can0 382#01FFFFFFFFFFFFFF
(5.343700) can0 301#9B07A80000154844
(5.350900) can0 18FF711E#00000000C8
(5.351400) can0 202#02100110F4010000
(5.351900) can0 202#01F4010000000000
(5.353700) can0 301#9B07A900001549B8
(5.356100) can0 182#CF11392010010000
(5.356600) can0 282#10475D1100001294
(5.357100) can0 382#01FFFFFFFFFFFFFF
(5.363700) can0 301#9B07AA00001549FC
(5.370700) can0 181#8136399000090000
(5.371200) can0 281#0000000000000063
(5.371700) can0 681#D200D200FFFFFFFF
(5.373600) can0 301#9B07AB0000154800
(5.376200) can0 182#CF11392010010000
(5.376600) can0 282#10475D110000128B
(5.377100) can0 382#01FFFFFFFFFFFFFF
(5.383600) can0 301#9C07AC0100151903
(5.393600) can0 301#9B07ADFFFF153948
(5.396100) can0 182#CF11392010010000
(5.396600) can0 282#10475D110000128B
(5.397100) can0 382#01FFFFFFFFFFFFFF
(5.400900) can0 18FF711E#00000000C8
(5.401400) can0 202#02100110F4010000
(5.401900) can0 202#01F4010000000000
(5.403600) can0 301#9B07AE00001548CC
(5.413600) can0 301#9B07AF0000154930
(5.416100) can0 182#CF11392010010000
(5.416600) can0 282#10475D110000128B
(5.417000) can0 382#01FFFFFFFFFFFFFF
(5.423600) can0 301#9B07B00000154EE4
(5.433600) can0 301#9B07B10000154F18
(5.436100) can0 182#CF11392010010000
(5.436600) can0 282#10475D110000128B
(5.437000) can0 382#01FFFFFFFFFFFFFF
(5.443600) can0 301#9B07B20000154F5C
(5.450900) can0 18FF711E#00000000C8
(5.451400) can0 202#02100110F4010000
(5.451900) can0 202#01F4010000000000
(5.453600) can0 301#9B07B30000154EA0
(5.456300) can0 182#CF11392010010000
(5.456800) can0 282#10475D110000128B
(5.457300) can0 382#01FFFFFFFFFFFFFF
(5.463500) can0 301#9B07B40000154FD4
(5.473500) can0 301#9B07B50000154E28
(5.476300) can0 182#CF11392010010000
(5.476700) can0 282#10475D110000128B
(5.477200) can0 382#01FFFFFFFFFFFFFF
(5.483500) can0 301#9B07B60000154E6C
(5.493500) can0 301#9B07B70000154F90
(5.496100) can0 182#CF11392010010000
(5.496600) can0 282#10475D110000128B
(5.497100) can0 382#01FFFFFFFFFFFFFF
(5.500900) can0 18FF711E#00000000C8
(5.501400) can0 202#02100110F4010000
(5.501900) can0 202#01F4010000000000
(5.503500) can0 301#9B07B80000154C84
(5.513500) can0 301#9B07B90000154D78
(5.516000) can0 182#CF11392010010000
(5.516500) can0 282#10475D110000128B
(5.517000) can0 382#01FFFFFFFFFFFFFF
(5.523500) can0 301#9B07BA0000154D3C
(5.533500) can0 301#9B07BB0000154CC0
(5.536100) can0 182#CF11392010010000
(5.536600) can0 282#10475D110000128B
(5.537100) can0 382#01FFFFFFFFFFFFFF
(5.543500) can0 301#9B07BC0000154DB4
(5.550900) can0 18FF711E#00000000C8
(5.551400) can0 202#02100110F4010000
(5.551900) can0 202#01F4010000000000
(5.553400) can0 301#9B07BD0000154C48
(5.556300) can0 182#CF11392010010000
(5.556800) can0 282#10475D110000128B
(5.557300) can0 382#01FFFFFFFFFFFFFF
(5.563500) can0 301#9B07BE0000154C0C
(5.573500) can0 301#9B07BF0000154DF0
(5.576100) can0 182#CF11392010010000
(5.576600) can0 282#10475D110000128B
(5.577000) can0 382#01FFFFFFFFFFFFFF
(5.583400) can0 301#9B07C00000155424
(5.593400) can0 301#9B07C100001555D8
(5.596100) can0 182#CF11392010010000
(5.596500) can0 282#10475D110000128B
(5.597000) can0 382#01FFFFFFFFFFFFFF
(5.600900) can0 18FF711E#00000000C8
(5.601400) can0 202#02100110F4010000
(5.601900) can0 202#01F4010000000000
(5.603400) can0 301#9B07C2000015559C
(5.613400) can0 301#9B07C30000155460
(5.616100) can0 182#CF11392010010000
(5.616500) can0 282#10475D110000128B
(5.617100) can0 382#01FFFFFFFFFFFFFF
(5.623400) can0 301#9B07C40000155514
(5.633400) can0 301#9B07C500001554E8
(5.636000) can0 182#CF11392010010000
(5.636500) can0 282#10475D110000128B
(5.637000) can0 382#01FFFFFFFFFFFFFF
(5.643300) can0 301#9B07C600001554AC
(5.650800) can0 18FF711E#00000000C8
(5.651400) can0 202#02100110F4010000
(5.651900) can0 202#01F4010000000000
(5.653400) can0 301#9B07C70000155550
(5.656000) can0 182#CF11392010010000
(5.656500) can0 282#10475D110000128B
(5.657000) can0 382#01FFFFFFFFFFFFFF
(5.663300) can0 301#9B07C80000155644
(5.673300) can0 301#9B07C900001557B8
(5.676000) can0 182#CF11392010010000
(5.676400) can0 282#10475D110000128B
(5.677000) can0 382#01FFFFFFFFFFFFFF
(5.683300) can0 301#9B07CA00001557FC
(5.693300) can0 301#9B07CB0000155600
(5.696200) can0 182#CF11392010010000
(5.696700) can0 282#104F5D110000128B
(5.697200) can0 382#01FFFFFFFFFFFFFF
(5.700900) can0 18FF711E#00000000C8
(5.701400) can0 202#02100110F4010000
(5.701800) can0 202#01F4010000000000
(5.703300) can0 301#9B07CC0000155774
(5.713300) can0 301#9B07CD0000155688
(5.716000) can0 182#CF11392010010000
(5.716500) can0 282#104F5D110000128B
(5.717000) can0 382#01FFFFFFFFFFFFFF
(5.723300) can0 301#9B07CE00001556CC
(5.733200) can0 301#9B07CF0000155730
(5.736000) can0 182#CF11392010010000
(5.736400) can0 282#104F5D1100001296
(5.737000) can0 382#01FFFFFFFFFFFFFF
(5.743300) can0 301#9C07D00100150093
(5.750900) can0 18FF711E#00000000C8
(5.751600) can0 202#02100110F4010000
(5.752100) can0 202#01F4010000000000
(5.753300) can0 301#9B07D1FFFF1520D8
(5.755900) can0 182#CF11392010010000
(5.756400) can0 282#104F5D1100001296
(5.756900) can0 382#01FFFFFFFFFFFFFF
(5.763200) can0 301#9B07D2000015515C
(5.773200) can0 301#9C07D301001500D7
(5.776000) can0 182#CF11392010010000
(5.776500) can0 282#104F5D1100001296
(5.777000) can0 382#01FFFFFFFFFFFFFF
(5.783200) can0 301#9B07D4FFFF152014
(5.793200) can0 301#9B07D50000155028
(5.796000) can0 182#CF11392010010000
(5.796400) can0 282#104F5D1100001296
(5.796900) can0 382#01FFFFFFFFFFFFFF
(5.800900) can0 18FF711E#00000000C8
(5.801300) can0 202#02100110F4010000
(5.801800) can0 202#01F4010000000000
(5.803200) can0 301#9B07D6000015506C
(5.813200) can0 301#9B07D70000155190
(5.815900) can0 182#CF11392010010000
(5.816400) can0 282#104F5D1100001296
(5.816900) can0 382#01FFFFFFFFFFFFFF
(5.823100) can0 301#9B07D80000155284
(5.833200) can0 301#9B07D90000155378
(5.836000) can0 182#CF11392010010000
(5.836500) can0 282#104F5D1100001296
(5.837000) can0 382#01FFFFFFFFFFFFFF
(5.843100) can0 301#9B07DA000015533C
(5.851100) can0 18FF711E#00000000C8
(5.851600) can0 202#02100110F4010000
(5.852100) can0 202#01F4010000000000
(5.853100) can0 301#9B07DB00001552C0
(5.855900) can0 182#CF11392010010000
(5.856400) can0 282#104F5D1100001296
(5.856900) can0 382#01FFFFFFFFFFFFFF
(5.863100) can0 301#9B07DC00001553B4
(5.873100) can0 301#9B07DD0000155248
(5.876000) can0 182#CF11392010010000
(5.876400) can0 282#103F5D1100001296
(5.876900) can0 382#01FFFFFFFFFFFFFF
(5.883100) can0 301#9B07DE000015520C
(5.893100) can0 301#9C07DF0100150387
(5.895900) can0 182#CF11392010010000
(5.896400) can0 282#103F5D110000129C
(5.896900) can0 382#01FFFFFFFFFFFFFF
(5.900800) can0 18FF711E#00000000C8
(5.901300) can0 202#02100110F4010000
(5.901800) can0 202#01F4010000000000
(5.903100) can0 301#9B07E0FFFF152E24
(5.913100) can0 301#9B07E10000155E18
(5.916100) can0 182#CF11392010010000
(5.916600) can0 282#103F5D110000129C
(5.917100) can0 382#01FFFFFFFFFFFFFF
(5.923100) can0 301#9B07E20000155E5C
(5.933000) can0 301#9B07E30000155FA0
(5.935900) can0 182#CF11392010010000
(5.936400) can0 282#103F5D110000129C
(5.936900) can0 382#01FFFFFFFFFFFFFF
(5.943000) can0 301#9B07E40000155ED4
(5.950800) can0 18FF711E#00000000C8
(5.951300) can0 202#02100110F4010000
(5.951800) can0 202#01F4010000000000
(5.953000) can0 301#9B07E50000155F28
(5.955900) can0 182#CF11392010010000
(5.956400) can0 282#103F5D110000129C
(5.956900) can0 382#01FFFFFFFFFFFFFF
(5.963000) can0 301#9B07E60000155F6C
(5.973000) can0 301#9B07E70000155E90
(5.975900) can0 182#CF11392010010000
(5.976400) can0 282#103F5D110000129C
(5.976900) can0 382#01FFFFFFFFFFFFFF
(5.983000) can0 301#9C07E80100150DF3
(5.993000) can0 301#9B07E9FFFF152DB8
(5.995900) can0 182#CF11392010010000
(5.996400) can0 282#103F5D110000129C
(5.996900) can0 382#01FFFFFFFFFFFFFF
(6.000800) can0 18FF711E#00000000C8
(6.001300) can0 202#02100110F4010000
(6.001800) can0 202#01F4010000000000
(6.002900) can0 301#9B07EA0000155C3C
(6.013000) can0 301#9B07EB0000155DC0
(6.015900) can0 182#CF11392010010000
(6.016400) can0 282#103F5D110000129C
(6.016900) can0 382#01FFFFFFFFFFFFFF
(6.022900) can0 301#9B07EC0000155CB4
(6.032900) can0 301#9B07ED0000155D48
(6.035900) can0 182#CF11392010010000
(6.036300) can0 282#103F5D110000129C
(6.036900) can0 382#01FFFFFFFFFFFFFF
(6.042900) can0 301#9B07EE0000155D0C
(6.050800) can0 18FF711E#00000000C8
(6.051300) can0 202#02100110F4010000
(6.051800) can0 202#01F4010000000000
(6.052900) can0 301#9B07EF0000155CF0
(6.055800) can0 182#CF11392010010000
(6.056300) can0 282#10075D110000129C
(6.056800) can0 382#01FFFFFFFFFFFFFF
(6.062900) can0 301#9B07F00000155B24
(6.072900) can0 301#9B07F10000155AD8
(6.075900) can0 182#CF11392010010000
(6.076300) can0 282#10075D110000129C
(6.076800) can0 382#01FFFFFFFFFFFFFF
(6.082900) can0 301#9B07F20000155A9C
(6.092800) can0 301#9C07F30100150B17
(6.095900) can0 182#CF11392010010000
(6.096400) can0 282#10075D110000129C
(6.096900) can0 382#01FFFFFFFFFFFFFF
(6.100800) can0 18FF711E#00000000C8
(6.101300) can0 202#02100110F4010000
(6.101800) can0 202#01F4010000000000
(6.102800) can0 301#9B07F4FFFF152BD4
(6.112800) can0 301#9B07F50000155BE8
(6.115800) can0 182#CF11392010010000
(6.116300) can0 282#10075D110000129C
(6.116800) can0 382#01FFFFFFFFFFFFFF
(6.122800) can0 301#9B07F60000155BAC
(6.132800) can0 301#9B07F70000155A50
(6.136000) can0 182#CF11392010010000
(6.136500) can0 282#10075D110000129C
(6.137000) can0 382#01FFFFFFFFFFFFFF
(6.142700) can0 301#9B07F80000155944
(6.150700) can0 18FF711E#00000000C8
(6.151200) can0 202#02100110F4010000
(6.151700) can0 202#01F4010000000000
(6.152700) can0 301#9B07F900001558B8
(6.156100) can0 182#CF11392010010000
(6.156500) can0 282#10075D110000129C
(6.157000) can0 382#01FFFFFFFFFFFFFF
(6.162800) can0 301#9B07FA00001558FC
(6.172700) can0 301#9B07FB0000155900
(6.175800) can0 182#CF11392010010000
(6.176200) can0 282#10075D110000129C
(6.176800) can0 382#01FFFFFFFFFFFFFF
(6.182700) can0 301#9B07FC0000155874
(6.192700) can0 301#9B07FD0000155988
(6.195800) can0 182#CF11392010010000
(6.196300) can0 282#10075D110000129C
(6.196800) can0 382#01FFFFFFFFFFFFFF
(6.200700) can0 18FF711E#00000000C8
(6.201200) can0 202#02100110F4010000
(6.201700) can0 202#01F4010000000000
(6.202700) can0 301#9B07FE00001559CC
(6.212700) can0 301#9B07FF0000155830
(6.215800) can0 182#CF11392010010000
(6.216200) can0 282#103F5D110000129C
(6.216700) can0 382#01FFFFFFFFFFFFFF
(6.222700) can0 301#9B07000000156824
(6.232600) can0 301#9B070100001569D8
(6.235700) can0 182#CF11392010010000
(6.236200) can0 282#103F5D110000129C
(6.236700) can0 382#01FFFFFFFFFFFFFF
(6.242600) can0 301#9B0702000015699C
(6.250700) can0 18FF711E#00000000C8
(6.251200) can0 202#02100110F4010000
(6.251700) can0 202#01F4010000000000
(6.252700) can0 301#9B07030000156860
(6.255700) can0 182#CF11392010010000
(6.256200) can0 282#103F5D110000129C
(6.256700) can0 382#01FFFFFFFFFFFFFF
(6.262600) can0 301#9B07040000156914
(6.272600) can0 301#9C0705010015389F
(6.275800) can0 182#CF11392010010000
(6.276300) can0 282#103F5D110000129C
(6.276800) can0 382#01FFFFFFFFFFFFFF
(6.282600) can0 301#9B0706FFFF15196C
(6.292600) can0 301#9B07070000156950
(6.295700) can0 182#CF11392010010000
(6.296200) can0 282#103F5D110000129C
(6.296700) can0 382#01FFFFFFFFFFFFFF
(6.300700) can0 18FF711E#00000000C8
(6.301300) can0 202#02100110F4010000
(6.301900) can0 202#01F4010000000000
(6.302600) can0 301#9B07080000156A44
(6.312600) can0 301#9B07090000156BB8
(6.315700) can0 182#CF11392010010000
(6.316200) can0 282#103F5D110000129C
(6.316700) can0 382#01FFFFFFFFFFFFFF
(6.322500) can0 301#9B070A0000156BFC
(6.332600) can0 301#9B070B0000156A00
(6.335700) can0 182#CF11392010010000
(6.336200) can0 282#103F5D110000129C
(6.336700) can0 382#01FFFFFFFFFFFFFF
(6.342600) can0 301#9C070C0100153B03
(6.350700) can0 18FF711E#00000000C8
(6.351100) can0 202#02100110F4010000
(6.351600) can0 202#01F4010000000000
(6.352500) can0 301#9B070DFFFF151B48
(6.355900) can0 182#CF11392010010000
(6.356300) can0 282#103F5D110000129C
(6.356900) can0 382#01FFFFFFFFFFFFFF
(6.362500) can0 301#9C070E0100153ABB
(6.370400) can0 181#8136399000090000
(6.370900) can0 281#0000000000000063
(6.371400) can0 681#D200D200FFFFFFFF
(6.372500) can0 301#9B070FFFFF151AF0
(6.375700) can0 182#CF11392010010000
(6.376200) can0 282#103F5D110000129C
(6.376700) can0 382#01FFFFFFFFFFFFFF
(6.382500) can0 301#9B07100000156CE4
(6.392500) can0 301#9C07110100153D6F
(6.395700) can0 182#CF11392010010000
(6.396200) can0 282#103F5D110000129C
(6.396700) can0 382#01FFFFFFFFFFFFFF
(6.400900) can0 18FF711E#00000000C8
(6.401400) can0 202#02100110F4010000
(6.401900) can0 202#01F4010000000000
(6.402500) can0 301#9B0712FFFF151C9C
(6.412500) can0 301#9B07130000156CA0
(6.415700) can0 182#CF11392010010000
(6.416200) can0 282#103F5D110000129C
(6.416700) can0 382#01FFFFFFFFFFFFFF
(6.422500) can0 301#9B07140000156DD4
(6.432500) can0 301#9B07150000156C28
(6.435700) can0 182#CF11392010010000
(6.436200) can0 282#103F5D11000012A2
(6.436700) can0 382#01FFFFFFFFFFFFFF
(6.442400) can0 301#9B07160000156C6C
(6.450700) can0 18FF711E#00000000C8
(6.451100) can0 202#02100110F4010000
(6.451700) can0 202#01F4010000000000
(6.452400) can0 301#9B07170000156D90
(6.455700) can0 182#CF11392010010000
(6.456100) can0 282#103F5D11000012A2
(6.456600) can0 382#01FFFFFFFFFFFFFF
(6.462400) can0 301#9B07180000156E84
(6.472400) can0 301#9C07190100153F0F
(6.475700) can0 182#CF11392010010000
(6.476200) can0 282#103F5D11000012A2
(6.476700) can0 382#01FFFFFFFFFFFFFF
(6.482400) can0 301#9B071AFFFF151EFC
(6.492400) can0 301#9B071B0000156EC0
(6.495600) can0 182#CF11392010010000
(6.496100) can0 282#103F5D11000012A2
(6.496600) can0 382#01FFFFFFFFFFFFFF
(6.500600) can0 18FF711E#00000000C8
(6.501100) can0 202#02100110F4010000
(6.501600) can0 202#01F4010000000000
(6.502300) can0 301#9B071C0000156FB4
(6.512300) can0 301#9B071D0000156E48
(6.515700) can0 182#CF11392010010000
(6.516200) can0 282#103F5D11000012A2
(6.516600) can0 382#01FFFFFFFFFFFFFF
(6.522300) can0 301#9B071E0000156E0C
(6.532300) can0 301#9C071F0100153F87
(6.535700) can0 182#CF11392010010000
(6.536100) can0 282#103F5D11000012A2
(6.536600) can0 382#01FFFFFFFFFFFFFF
(6.542300) can0 301#9B0720FFFF151224
(6.550600) can0 18FF711E#00000000C8
(6.551100) can0 202#02100110F4010000
(6.551600) can0 202#01F4010000000000
(6.552300) can0 301#9B07210000156218
(6.555900) can0 182#CF11392010010000
(6.556400) can0 282#103F5D11000012A2
(6.556900) can0 382#01FFFFFFFFFFFFFF
(6.562300) can0 301#9C0722010015322B
(6.572300) can0 301#9B0723FFFF151260
(6.575900) can0 182#CF11392010010000
(6.576400) can0 282#10375D11000012A2
(6.576900) can0 382#01FFFFFFFFFFFFFF
(6.582300) can0 301#9B072400001562D4
(6.592200) can0 301#9B07250000156328
(6.595700) can0 182#CF11392010010000
(6.596100) can0 282#10375D11000012A2
(6.596600) can0 382#01FFFFFFFFFFFFFF
(6.600600) can0 18FF711E#00000000C8
(6.601100) can0 202#02100110F4010000
(6.601600) can0 202#01F4010000000000
(6.602200) can0 301#9B0726000015636C
(6.612300) can0 301#9B07270000156290
(6.615600) can0 182#CF11392010010000
(6.616100) can0 282#10375D11000012AF
(6.616600) can0 382#01FFFFFFFFFFFFFF
(6.622200) can0 301#9B07280000156184
(6.632200) can0 301#9B07290000156078
(6.635600) can0 182#CF11392010010000
(6.636100) can0 282#10375D11000012AF
(6.636600) can0 382#01FFFFFFFFFFFFFF
(6.642200) can0 301#9B072A000015603C
(6.650600) can0 18FF711E#00000000C8
(6.651100) can0 202#02100110F4010000
(6.651600) can0 202#01F4010000000000
(6.652200) can0 301#9B072B00001561C0
(6.655900) can0 182#CF11392010010000
(6.656300) can0 282#10375D11000012AF
(6.656800) can0 382#01FFFFFFFFFFFFFF
(6.662200) can0 301#9B072C00001560B4
(6.672200) can0 301#9B072D0000156148
(6.675600) can0 182#CF11392010010000
(6.676100) can0 282#10375D11000012AF
(6.676600) can0 382#01FFFFFFFFFFFFFF
(6.682100) can0 301#9B072E000015610C
(6.692200) can0 301#9B072F00001560F0
(6.695600) can0 182#CF11392010010000
(6.696100) can0 282#10375D11000012AF
(6.696500) can0 382#01FFFFFFFFFFFFFF
(6.700600) can0 18FF711E#00000000C8
(6.701100) can0 202#02100110F4010000
(6.701600) can0 202#01F4010000000000
(6.702100) can0 301#9B07300000156724
(6.712100) can0 301#9B073100001566D8
(6.715600) can0 182#CF11392010010000
(6.716100) can0 282#10375D11000012AF
(6.716500) can0 382#01FFFFFFFFFFFFFF
(6.722100) can0 301#9B0732000015669C
(6.732100) can0 301#9B07330000156760
(6.735600) can0 182#CF11392010010000
(6.736000) can0 282#10375D11000012AF
(6.736500) can0 382#01FFFFFFFFFFFFFF
(6.742100) can0 301#9B07340000156614
(6.750600) can0 18FF711E#00000000C8
(6.751100) can0 202#02100110F4010000
(6.751600) can0 202#01F4010000000000
(6.752100) can0 301#9B073500001567E8
(6.755500) can0 182#CF11392010010000
(6.756000) can0 282#10375D11000012AF
(6.756500) can0 382#01FFFFFFFFFFFFFF
(6.762100) can0 301#9B073600001567AC
(6.772000) can0 301#9B07370000156650
(6.775500) can0 182#CF11392010010000
(6.776000) can0 282#10375D11000012AF
(6.776500) can0 382#01FFFFFFFFFFFFFF
(6.782000) can0 301#9B07380000156544
(6.792000) can0 301#9B073900001564B8
(6.795800) can0 182#CF11392010010000
(6.796200) can0 282#10375D11000012AF
(6.796700) can0 382#01FFFFFFFFFFFFFF
(6.800600) can0 18FF711E#00000000C8
(6.801100) can0 202#02100110F4010000
(6.801600) can0 202#01F4010000000000
(6.802000) can0 301#9B073A00001564FC
(6.812000) can0 301#9B073B0000156500
(6.815500) can0 182#CF11392010010000
(6.816000) can0 282#10375D11000012AF
(6.816500) can0 382#01FFFFFFFFFFFFFF
(6.822000) can0 301#9B073C0000156474
(6.832000) can0 301#9B073D0000156588
(6.835600) can0 182#CF11392010010000
(6.836000) can0 282#10375D11000012AF
(6.836600) can0 382#01FFFFFFFFFFFFFF
(6.842000) can0 301#9B073E00001565CC
(6.850600) can0 18FF711E#00000000C8
(6.851200) can0 202#02100110F4010000
(6.851700) can0 202#01F4010000000000
(6.852200) can0 301#9B073F0000156430
(6.855800) can0 182#CF11392010010000
(6.856300) can0 282#10375D11000012AF
(6.856700) can0 382#01FFFFFFFFFFFFFF
(6.861900) can0 301#9B07400000157DE4
(6.871900) can0 301#9B07410000157C18
(6.875500) can0 182#CF11392010010000
(6.876000) can0 282#10375D11000012AF
(6.876500) can0 382#01FFFFFFFFFFFFFF
(6.881900) can0 301#9B07420000157C5C
(6.891900) can0 301#9B07430000157DA0
(6.895500) can0 182#CF11392010010000
(6.896000) can0 282#10375D11000012AF
(6.896500) can0 382#01FFFFFFFFFFFFFF
(6.900600) can0 18FF711E#00000000C8
(6.901000) can0 202#02100110F4010000
(6.901500) can0 202#01F4010000000000
(6.902000) can0 301#9B07440000157CD4
(6.911900) can0 301#9C07450100152D5F
(6.915500) can0 182#CF11392010010000
(6.916000) can0 282#10375D11000012AF
(6.916500) can0 382#01FFFFFFFFFFFFFF
(6.921900) can0 301#9B0746FFFF150CAC
(6.931900) can0 301#9B07470000157C90
(6.935500) can0 182#CF11392010010000
(6.936000) can0 282#10075D11000012AF
(6.936500) can0 382#01FFFFFFFFFFFFFF
(6.941900) can0 301#9B07480000157F84
(6.950800) can0 18FF711E#00000000C8
(6.951200) can0 202#02100110F4010000
(6.951800) can0 202#01F4010000000000
(6.952200) can0 301#9B07490000157E78
(6.955500) can0 182#CF11392010010000
(6.955900) can0 282#10075D11000012A2
(6.956400) can0 382#01FFFFFFFFFFFFFF
(6.961800) can0 301#9B074A0000157E3C
(6.971800) can0 301#9B074B0000157FC0
(6.975500) can0 182#CF11392010010000
(6.976000) can0 282#10075D11000012A2
(6.976500) can0 382#01FFFFFFFFFFFFFF
(6.981800) can0 301#9B074C0000157EB4
(6.991800) can0 301#9B074D0000157F48
(6.995400) can0 182#CF11392010010000
(6.995900) can0 282#10075D11000012A2
(6.996400) can0 382#01FFFFFFFFFFFFFF
(7.000500) can0 18FF711E#00000000C8
(7.001000) can0 202#02100110F4010000
(7.001500) can0 202#01F4010000000000
(7.002000) can0 301#9B074E0000157F0C
(7.011800) can0 301#9B074F0000157EF0
(7.015600) can0 182#CF11392010010000
(7.016100) can0 282#10075D11000012A2
(7.016600) can0 382#01FFFFFFFFFFFFFF
(7.021800) can0 301#9B07500000157924
(7.031800) can0 301#9B075100001578D8
(7.035500) can0 182#CF11392010010000
(7.036000) can0 282#10075D11000012A2
(7.036500) can0 382#01FFFFFFFFFFFFFF
(7.041700) can0 301#9B0752000015789C
(7.050500) can0 18FF711E#00000000C8
(7.051000) can0 202#02100110F4010000
(7.051500) can0 202#01F4010000000000
(7.052000) can0 301#9B07530000157960
(7.055700) can0 182#CF11392010010000
(7.056200) can0 282#10075D11000012A2
(7.056700) can0 382#01FFFFFFFFFFFFFF
(7.061700) can0 301#9B07540000157814
(7.071700) can0 301#9B075500001579E8
(7.075400) can0 182#CF11392010010000
(7.075900) can0 282#10075D11000012A2
(7.076400) can0 382#01FFFFFFFFFFFFFF
(7.081700) can0 301#9B075600001579AC
(7.091700) can0 301#9B07570000157850
(7.095500) can0 182#CF11392010010000
(7.095900) can0 282#10475D11000012A2
(7.096400) can0 382#01FFFFFFFFFFFFFF
(7.100500) can0 18FF711E#00000000C8
(7.101000) can0 202#02100110F4010000
(7.101500) can0 202#01F4010000000000
(7.102000) can0 301#9B07580000157B44
(7.111700) can0 301#9B07590000157AB8
(7.115500) can0 182#CF11392010010000
(7.115900) can0 282#10475D11000012A2
(7.116500) can0 382#01FFFFFFFFFFFFFF
(7.121700) can0 301#9C075A0100152A8B
(7.131600) can0 301#9B075BFFFF150AC0
(7.135500) can0 182#CF11392010010000
(7.135900) can0 282#10475D110000129F
(7.136400) can0 382#01FFFFFFFFFFFFFF
(7.141600) can0 301#9B075C0000157A74
(7.150500) can0 18FF711E#00000000C8
(7.150900) can0 202#02100110F4010000
(7.151500) can0 202#01F4010000000000
(7.151900) can0 301#9B075D0000157B88
(7.155400) can0 182#CF11392010010000
(7.155900) can0 282#10475D110000129F
(7.156400) can0 382#01FFFFFFFFFFFFFF
(7.161600) can0 301#9B075E0000157BCC
(7.171600) can0 301#9B075F0000157A30
(7.175400) can0 182#CF11392010010000
(7.175900) can0 282#10475D110000129F
(7.176300) can0 382#01FFFFFFFFFFFFFF
(7.181500) can0 301#9C07600100152653
(7.191600) can0 301#9B0761FFFF150618
(7.195400) can0 182#CF11392010010000
(7.195900) can0 282#10475D110000129F
(7.196400) can0 382#01FFFFFFFFFFFFFF
(7.200500) can0 18FF711E#00000000C8
(7.201000) can0 202#02100110F4010000
(7.201500) can0 202#01F4010000000000
(7.201900) can0 301#9B0762000015779C
(7.211500) can0 301#9B07630000157660
(7.215400) can0 182#CF11392010010000
(7.215800) can0 282#10475D110000129F
(7.216300) can0 382#01FFFFFFFFFFFFFF
(7.221500) can0 301#9B07640000157714
(7.231500) can0 301#9B076500001576E8
(7.235600) can0 182#CF11392010010000
(7.236000) can0 282#10475D110000129F
(7.236500) can0 382#01FFFFFFFFFFFFFF
(7.241500) can0 301#9B076600001576AC
(7.250400) can0 18FF711E#00000000C8
(7.251000) can0 202#02100110F4010000
(7.251400) can0 202#01F4010000000000
(7.251900) can0 301#9B07670000157750
(7.255600) can0 182#CF11392010010000
(7.256100) can0 282#10475D110000129F
(7.256600) can0 382#01FFFFFFFFFFFFFF
(7.261500) can0 301#9B07680000157444
(7.271400) can0 301#9B076900001575B8
(7.275300) can0 182#CF11392010010000
(7.275800) can0 282#10475D110000129F
(7.276300) can0 382#01FFFFFFFFFFFFFF
(7.281500) can0 301#9B076A00001575FC
(7.291500) can0 301#9B076B0000157400
(7.295400) can0 182#CF11392010010000
(7.295800) can0 282#10475D110000129F
(7.296400) can0 382#01FFFFFFFFFFFFFF
(7.300500) can0 18FF711E#00000000C8
(7.300900) can0 202#02100110F4010000
(7.301400) can0 202#01F4010000000000
(7.301900) can0 301#9C076C0100152503
(7.311400) can0 301#9B076DFFFF150548
(7.315400) can0 182#CF11392010010000
(7.315900) can0 282#10475D110000129C
(7.316400) can0 382#01FFFFFFFFFFFFFF
(7.321400) can0 301#9B076E00001574CC
(7.331400) can0 301#9B076F0000157530
(7.335400) can0 182#CF11392010010000
(7.335800) can0 282#10475D110000129C
(7.336300) can0 382#01FFFFFFFFFFFFFF
(7.341400) can0 301#9B077000001572E4
(7.350400) can0 18FF711E#00000000C8
(7.350900) can0 202#02100110F4010000
(7.351400) can0 202#01F4010000000000
(7.351900) can0 301#9B07710000157318
(7.355300) can0 182#CF11392010010000
(7.355800) can0 282#10475D110000129C
(7.356300) can0 382#01FFFFFFFFFFFFFF
(7.361300) can0 301#9B0772000015735C
(7.370200) can0 181#8136399000090000
(7.370700) can0 281#0000000000000063
(7.371200) can0 681#D200D200FFFFFFFF
(7.371600) can0 301#9B077300001572A0
(7.375300) can0 182#CF11392010010000
(7.375800) can0 282#10475D110000129C
(7.376300) can0 382#01FFFFFFFFFFFFFF
(7.381400) can0 301#9B077400001573D4
(7.391300) can0 301#9B07750000157228
(7.395300) can0 182#CF11392010010000
(7.395800) can0 282#10475D110000129C
(7.396300) can0 382#01FFFFFFFFFFFFFF
(7.400400) can0 18FF711E#00000000C8
(7.401100) can0 202#02100110F4010000
(7.401600) can0 202#01F4010000000000
(7.402000) can0 301#9B0776000015726C
(7.411300) can0 301#9C077701001523E7
(7.415300) can0 182#CF11392010010000
(7.415800) can0 282#10475D110000129C
(7.416300) can0 382#01FFFFFFFFFFFFFF
(7.421300) can0 301#9B0778FFFF150144
(7.431300) can0 301#9B07790000157178
(7.435300) can0 182#CF11392010010000
(7.435800) can0 282#10475D110000129C
(7.436300) can0 382#01FFFFFFFFFFFFFF
(7.441300) can0 301#9B077A000015713C
(7.450400) can0 18FF711E#00000000C8
(7.450900) can0 202#02100110F4010000
(7.451400) can0 202#01F4010000000000
(7.451900) can0 301#9B077B00001570C0
(7.455800) can0 182#CF11392010010000
(7.456300) can0 282#10475D110000129C
(7.456700) can0 382#01FFFFFFFFFFFFFF
(7.461300) can0 301#9B077C00001571B4
(7.471300) can0 301#9B077D0000157048
(7.475300) can0 182#CF11392010010000
(7.475700) can0 282#10475D110000129C
(7.476200) can0 382#01FFFFFFFFFFFFFF
(7.481200) can0 301#9B077E000015700C
(7.491300) can0 301#9B077F00001571F0
(7.495300) can0 182#CF11392010010000
(7.495700) can0 282#10475D110000129C
(7.496200) can0 382#01FFFFFFFFFFFFFF
(7.500600) can0 18FF711E#00000000C8
(7.501100) can0 202#02100110F4010000
(7.501600) can0 202#01F4010000000000
(7.502100) can0 301#9B078000001541E4
(7.511200) can0 301#9B07810000154018
(7.515300) can0 182#CF11392010010000
(7.515700) can0 282#10475D110000129C
(7.516200) can0 382#01FFFFFFFFFFFFFF
(7.521200) can0 301#9B0782000015405C
(7.531200) can0 301#9B078300001541A0
(7.535300) can0 182#CF11392010010000
(7.535800) can0 282#10475D110000129C
(7.536300) can0 382#01FFFFFFFFFFFFFF
(7.541200) can0 301#9B078400001540D4
(7.550400) can0 18FF711E#00000000C8
(7.550900) can0 202#02100110F4010000
(7.551400) can0 202#01F4010000000000
(7.551800) can0 301#9B07850000154128
(7.555500) can0 182#CF11392010010000
(7.556000) can0 282#10475D110000129C
(7.556500) can0 382#01FFFFFFFFFFFFFF
(7.561200) can0 301#9B0786000015416C
(7.571200) can0 301#9B07870000154090
(7.575200) can0 182#CF11392010010000
(7.575700) can0 282#10475D110000129C
(7.576200) can0 382#01FFFFFFFFFFFFFF
(7.581200) can0 301#9B07880000154384
(7.591100) can0 301#9B07890000154278
(7.595300) can0 182#CF11392010010000
(7.595800) can0 282#10475D110000129C
(7.596300) can0 382#01FFFFFFFFFFFFFF
(7.600400) can0 18FF711E#00000000C8
(7.600900) can0 202#02100110F4010000
(7.601400) can0 202#01F4010000000000
(7.601900) can0 301#9B078A000015423C
(7.611100) can0 301#9B078B00001543C0
(7.615300) can0 182#CF11392010010000
(7.615800) can0 282#10475D110000129C
(7.616200) can0 382#01FFFFFFFFFFFFFF
(7.621100) can0 301#9B078C00001542B4
(7.631100) can0 301#9B078D0000154348
(7.635300) can0 182#CF11392010010000
(7.635700) can0 282#103F5D110000129C
(7.636200) can0 382#01FFFFFFFFFFFFFF
(7.641100) can0 301#9C078E010015137B
(7.650400) can0 18FF711E#00000000C8
(7.650900) can0 202#02100110F4010000
(7.651300) can0 202#01F4010000000000
(7.651900) can0 301#9B078FFFFF153330
(7.655200) can0 182#CF11392010010000
(7.655700) can0 282#103F5D1100001296
(7.656200) can0 382#01FFFFFFFFFFFFFF
(7.661000) can0 301#9B07900000154524
(7.671100) can0 301#9B079100001544D8
(7.675500) can0 182#CF11392010010000
(7.676000) can0 282#103F5D1100001296
(7.676400) can0 382#01FFFFFFFFFFFFFF
(7.681000) can0 301#9B0792000015449C
(7.691000) can0 301#9B07930000154560
(7.695300) can0 182#CF11392010010000
(7.695700) can0 282#103F5D1100001296
(7.696200) can0 382#01FFFFFFFFFFFFFF
(7.700400) can0 18FF711E#00000000C8
(7.700800) can0 202#02100110F4010000
(7.701400) can0 202#01F4010000000000
(7.701800) can0 301#9B07940000154414
(7.711000) can0 301#9B079500001545E8
(7.715200) can0 182#CF11392010010000
(7.715600) can0 282#103F5D1100001296
(7.716200) can0 382#01FFFFFFFFFFFFFF
(7.721000) can0 301#9B079600001545AC
(7.731000) can0 301#9B07970000154450
(7.735200) can0 182#CF11392010010000
(7.735700) can0 282#103F5D1100001296
(7.736200) can0 382#01FFFFFFFFFFFFFF
(7.740900) can0 301#9B07980000154744
(7.750300) can0 18FF711E#00000000C8
(7.750800) can0 202#02100110F4010000
(7.751400) can0 202#01F4010000000000
(7.751800) can0 301#9B079900001546B8
(7.755500) can0 182#CF11392010010000
(7.755900) can0 282#103F5D1100001296
(7.756400) can0 382#01FFFFFFFFFFFFFF
(7.761000) can0 301#9B079A00001546FC
(7.770900) can0 301#9B079B0000154700
(7.775200) can0 182#CF11392010010000
(7.775700) can0 282#103F5D1100001296
(7.776200) can0 382#01FFFFFFFFFFFFFF
(7.780900) can0 301#9B079C0000154674
(7.790900) can0 301#9B079D0000154788
(7.795100) can0 182#CF11392010010000
(7.795600) can0 282#103F5D1100001296
(7.796100) can0 382#01FFFFFFFFFFFFFF
(7.800300) can0 18FF711E#00000000C8
(7.800900) can0 202#02100110F4010000
(7.801300) can0 202#01F4010000000000
(7.801800) can0 301#9B079E00001547CC
(7.810900) can0 301#9B079F0000154630
(7.815100) can0 182#CF11392010010000
(7.815600) can0 282#10175D1100001296
(7.816100) can0 382#01FFFFFFFFFFFFFF
(7.820900) can0 301#9B07A00000154A24
(7.830800) can0 301#9B07A10000154BD8
(7.835200) can0 182#CF11392010010000
(7.835600) can0 282#10175D110000128B
(7.836100) can0 382#01FFFFFFFFFFFFFF
(7.840800) can0 301#9B07A20000154B9C
(7.850300) can0 18FF711E#00000000C8
(7.850800) can0 202#02100110F4010000
(7.851300) can0 202#01F4010000000000
(7.851800) can0 301#9B07A30000154A60
(7.855100) can0 182#CF11392010010000
(7.855600) can0 282#10175D110000128B
(7.856100) can0 382#01FFFFFFFFFFFFFF
(7.860800) can0 301#9B07A40000154B14
(7.870800) can0 301#9B07A50000154AE8
(7.875100) can0 182#CF11392010010000
(7.875600) can0 282#10175D110000128B
(7.876100) can0 382#01FFFFFFFFFFFFFF
(7.880800) can0 301#9B07A60000154AAC
(7.890800) can0 301#9B07A70000154B50
(7.895300) can0 182#CF11392010010000
(7.895800) can0 282#10175D110000128B
(7.896300) can0 382#01FFFFFFFFFFFFFF
(7.900300) can0 18FF711E#00000000C8
(7.900800) can0 301#9B07A80000154844
(7.901200) can0 202#02100110F4010000
(7.901800) can0 202#01F4010000000000
(7.910800) can0 301#9B07A900001549B8
(7.915200) can0 182#CF11392010010000
(7.915600) can0 282#10175D110000128B
(7.916100) can0 382#01FFFFFFFFFFFFFF
(7.920700) can0 301#9B07AA00001549FC
(7.930700) can0 301#9B07AB0000154800
(7.935100) can0 182#CF11392010010000
(7.935600) can0 282#10175D110000128B
(7.936100) can0 382#01FFFFFFFFFFFFFF
(7.940800) can0 301#9B07AC0000154974
(7.950300) can0 18FF711E#00000000C8
(7.950800) can0 301#9B07AD0000154888
(7.951300) can0 202#02100110F4010000
(7.951800) can0 202#01F4010000000000
(7.955100) can0 182#CF11392010010000
(7.955600) can0 282#10175D110000128B
(7.956100) can0 382#01FFFFFFFFFFFFFF
(7.960700) can0 301#9B07AE00001548CC
(7.970700) can0 301#9B07AF0000154930
(7.975100) can0 182#CF11392010010000
(7.975600) can0 282#10475D110000128B
(7.976100) can0 382#01FFFFFFFFFFFFFF
(7.980700) can0 301#9B07B00000154EE4
(7.990700) can0 301#9B07B10000154F18
(7.995200) can0 182#CF11392010010000
(7.995600) can0 282#10475D110000128B
(7.996100) can0 382#01FFFFFFFFFFFFFF
(8.000300) can0 18FF711E#00000000C8
(8.000700) can0 301#9B07B20000154F5C
(8.001300) can0 202#02100110F4010000
(8.001700) can0 202#01F4010000000000
(8.010600) can0 301#9B07B30000154EA0
(8.015100) can0 182#CF11392010010000
(8.015600) can0 282#10475D1100001289
(8.016100) can0 382#01FFFFFFFFFFFFFF
(8.020700) can0 301#9B07B40000154FD4
(8.030600) can0 301#9B07B50000154E28
(8.035100) can0 182#CF11392010010000
(8.035600) can0 282#10475D1100001289
(8.036000) can0 382#01FFFFFFFFFFFFFF
(8.040600) can0 301#9B07B60000154E6C
(8.050500) can0 18FF711E#00000000C8
(8.051000) can0 202#02100110F4010000
(8.051500) can0 202#01F4010000000000
(8.051900) can0 301#9B07B70000154F90
(8.055300) can0 182#CF11392010010000
(8.055800) can0 282#10475D1100001289
(8.056300) can0 382#01FFFFFFFFFFFFFF
(8.060600) can0 301#9B07B80000154C84
(8.070600) can0 301#9B07B90000154D78
(8.075100) can0 182#CF11392010010000
(8.075500) can0 282#10475D1100001289
(8.076000) can0 382#01FFFFFFFFFFFFFF
(8.080600) can0 301#9B07BA0000154D3C
(8.090600) can0 301#9B07BB0000154CC0
(8.095100) can0 182#CF11392010010000
(8.095600) can0 282#10475D1100001289
(8.096100) can0 382#01FFFFFFFFFFFFFF
(8.100300) can0 18FF711E#00000000C8
(8.100800) can0 202#02100110F4010000
(8.101300) can0 202#01F4010000000000
(8.101700) can0 301#9B07BC0000154DB4
(8.110500) can0 301#9B07BD0000154C48
(8.115300) can0 182#CF11392010010000
(8.115700) can0 282#10475D1100001289
(8.116200) can0 382#01FFFFFFFFFFFFFF
(8.120500) can0 301#9B07BE0000154C0C
(8.130500) can0 301#9B07BF0000154DF0
(8.135100) can0 182#CF11392010010000
(8.135600) can0 282#10475D1100001289
(8.136000) can0 382#01FFFFFFFFFFFFFF
(8.140600) can0 301#9B07C00000155424
(8.150300) can0 18FF711E#00000000C8
(8.150800) can0 301#9B07C100001555D8
(8.151300) can0 202#02100110F4010000
(8.151700) can0 202#01F4010000000000
(8.155300) can0 182#CF11392010010000
(8.155800) can0 282#104F5D1100001289
(8.156300) can0 382#01FFFFFFFFFFFFFF
(8.160500) can0 301#9B07C2000015559C
(8.170500) can0 301#9B07C30000155460
(8.175100) can0 182#CF11392010010000
(8.175500) can0 282#104F5D1100001289
(8.176000) can0 382#01FFFFFFFFFFFFFF
(8.180500) can0 301#9B07C40000155514
(8.190500) can0 301#9B07C500001554E8
(8.195000) can0 182#CF11392010010000
(8.195500) can0 282#104F5D1100001299
(8.196000) can0 382#01FFFFFFFFFFFFFF
(8.200300) can0 18FF711E#00000000C8
(8.200800) can0 202#02100110F4010000
(8.201300) can0 202#01F4010000000000
(8.201700) can0 301#9B07C600001554AC
(8.210400) can0 301#9C07C70100150527
(8.215100) can0 182#CF11392010010000
(8.215600) can0 282#104F5D1100001299
(8.216100) can0 382#01FFFFFFFFFFFFFF
(8.220400) can0 301#9B07C8FFFF152784
(8.230400) can0 301#9B07C900001557B8
(8.235000) can0 182#CF11392010010000
(8.235500) can0 282#104F5D1100001299
(8.236000) can0 382#01FFFFFFFFFFFFFF
(8.240400) can0 301#9B07CA00001557FC
(8.250300) can0 18FF711E#00000000C8
(8.250800) can0 301#9B07CB0000155600
(8.251200) can0 202#02100110F4010000
(8.251700) can0 202#01F4010000000000
(8.255000) can0 182#CF11392010010000
(8.255500) can0 282#104F5D1100001299
(8.256000) can0 382#01FFFFFFFFFFFFFF
(8.260400) can0 301#9B07CC0000155774
(8.270400) can0 301#9B07CD0000155688
(8.275000) can0 182#CF11392010010000
(8.275500) can0 282#104F5D1100001299
(8.276000) can0 382#01FFFFFFFFFFFFFF
(8.280400) can0 301#9B07CE00001556CC
(8.290400) can0 301#9B07CF0000155730
(8.295000) can0 182#CF11392010010000
(8.295500) can0 282#104F5D1100001299
(8.296000) can0 382#01FFFFFFFFFFFFFF
(8.300300) can0 18FF711E#00000000C8
(8.300700) can0 301#9B07D000001550E4
(8.301200) can0 202#02100110F4010000
(8.301700) can0 202#01F4010000000000
(8.310300) can0 301#9B07D10000155118
(8.315100) can0 182#CF11392010010000
(8.315500) can0 282#104F5D1100001299
(8.316000) can0 382#01FFFFFFFFFFFFFF
(8.320300) can0 301#9B07D2000015515C
(8.330300) can0 301#9B07D300001550A0
(8.335300) can0 182#CF11392010010000
(8.335800) can0 282#10475D1100001299
(8.336300) can0 382#01FFFFFFFFFFFFFF
(8.340300) can0 301#9B07D400001551D4
(8.350300) can0 18FF711E#00000000C8
(8.350700) can0 202#02100110F4010000
(8.351200) can0 202#01F4010000000000
(8.351700) can0 301#9B07D50000155028
(8.355000) can0 182#CF11392010010000
(8.355500) can0 282#10475D1100001299
(8.355900) can0 382#01FFFFFFFFFFFFFF
(8.360300) can0 301#9B07D6000015506C
(8.370000) can0 181#8136399000090000
(8.370500) can0 281#0000000000000063
(8.371000) can0 301#9B07D70000155190
(8.371500) can0 681#D200D200FFFFFFFF
(8.375100) can0 182#CF11392010010000
(8.375500) can0 282#10475D110000129F
(8.376000) can0 382#01FFFFFFFFFFFFFF
(8.380300) can0 301#9B07D80000155284
(8.390200) can0 301#9B07D90000155378
(8.395000) can0 182#CF11392010010000
(8.395400) can0 282#10475D110000129F
(8.395900) can0 382#01FFFFFFFFFFFFFF
(8.400200) can0 301#9B07DA000015533C
(8.400700) can0 18FF711E#00000000C8
(8.401200) can0 202#02100110F4010000
(8.401700) can0 202#01F4010000000000
(8.410200) can0 301#9B07DB00001552C0
(8.415000) can0 182#CF11392010010000
(8.415500) can0 282#10475D110000129F
(8.416000) can0 382#01FFFFFFFFFFFFFF
(8.420200) can0 301#9C07DC01001503C3
(8.430200) can0 301#9B07DDFFFF152388
(8.435000) can0 182#CF11392010010000
(8.435400) can0 282#10475D110000129F
(8.435900) can0 382#01FFFFFFFFFFFFFF
(8.440200) can0 301#9B07DE000015520C
(8.450200) can0 301#9C07DF0100150387
(8.450700) can0 18FF711E#00000000C8
(8.451100) can0 202#02100110F4010000
(8.451600) can0 202#01F4010000000000
(8.455000) can0 182#CF11392010010000
(8.455400) can0 282#10475D110000129F
(8.455900) can0 382#01FFFFFFFFFFFFFF
(8.460200) can0 301#9B07E0FFFF152E24
(8.470200) can0 301#9B07E10000155E18
(8.475000) can0 182#CF11392010010000
(8.475500) can0 282#10475D110000129F
(8.476000) can0 382#01FFFFFFFFFFFFFF
(8.480100) can0 301#9B07E20000155E5C
(8.490100) can0 301#9B07E30000155FA0
(8.494900) can0 182#CF11392010010000
(8.495400) can0 282#10475D110000129F
(8.495900) can0 382#01FFFFFFFFFFFFFF
(8.500200) can0 301#9B07E40000155ED4
(8.500600) can0 18FF711E#00000000C8
(8.501100) can0 202#02100110F4010000
(8.501600) can0 202#01F4010000000000
(8.510100) can0 301#9B07E50000155F28
(8.514900) can0 182#CF11392010010000
(8.515400) can0 282#10475D110000129F
(8.515900) can0 382#01FFFFFFFFFFFFFF
(8.520100) can0 301#9B07E60000155F6C
(8.530100) can0 301#9B07E70000155E90
(8.535000) can0 182#CF11392010010000
(8.535400) can0 282#10475D110000129C
(8.536000) can0 382#01FFFFFFFFFFFFFF
(8.540100) can0 301#9B07E80000155D84
(8.550100) can0 301#9B07E90000155C78
(8.550500) can0 18FF711E#00000000C8
(8.551000) can0 202#02100110F4010000
(8.551500) can0 202#01F4010000000000
(8.555200) can0 182#CF11392010010000
(8.555600) can0 282#10475D110000129C
(8.556100) can0 382#01FFFFFFFFFFFFFF
(8.560100) can0 301#9B07EA0000155C3C
(8.570000) can0 301#9C07EB0100150DB7
(8.574900) can0 182#CF11392010010000
(8.575400) can0 282#10475D110000129C
(8.575900) can0 382#01FFFFFFFFFFFFFF
(8.580000) can0 301#9C07EC0000155D03
(8.590100) can0 301#9B07EDFFFF152C88
(8.594900) can0 182#CF11392010010000
(8.595400) can0 282#10475D110000129C
(8.595900) can0 382#01FFFFFFFFFFFFFF
(8.600000) can0 301#9B07EE0000155D0C
(8.600500) can0 18FF711E#00000000C8
(8.601000) can0 202#02100110F4010000
(8.601400) can0 202#01F4010000000000
(8.610000) can0 301#9C07EF0100150C87
(8.615000) can0 182#CF11392010010000
(8.615400) can0 282#10475D110000129C
(8.615900) can0 382#01FFFFFFFFFFFFFF
(8.620000) can0 301#9B07F0FFFF152AE4
(8.630000) can0 301#9B07F10000155AD8
(8.634900) can0 182#CF11392010010000
(8.635400) can0 282#10475D110000129C
(8.635900) can0 382#01FFFFFFFFFFFFFF
(8.640000) can0 301#9B07F20000155A9C
